(1779526305.126390) can0 360#0000040300510000
(1779526305.126486) can0 361#041B03F500000000
(1779526305.126577) can0 362#00000000001E0000
(1779526305.126708) can0 36C#0000000000000000
(1779526305.126853) can0 36D#0000000000000000
(1779526305.126938) can0 36E#0000000000000000
(1779526305.127064) can0 372#00820000000003F5
(1779526305.127195) can0 3EC#0000000000000000
(1779526305.127326) can0 471#001B000104030000
(1779526305.127511) can0 472#0000000000000000
(1779526305.127588) can0 6D0#27000000C8000000
(1779526305.127713) can0 6F8#00000000000003E8
(1779526305.127827) can0 324#0007000500070009
(1779526305.128890) can0 328#0000000000000000
(1779526305.129857) can0 6D1#27ED022800000000
(1779526305.132853) can0 320#13818D249384055E
(1779526305.133843) can0 2B3#100112
(1779526305.133909) can0 2B1#09940000500000A4
(1779526305.134498) can0 6D3#8000138800000000
(1779526305.136500) can0 6D4#2700006E00000000
(1779526305.136589) can0 324#0009000B00090007
(1779526305.139088) can0 3E5#0100000000000000
(1779526305.139177) can0 364#0D90000000000000
(1779526305.139195) can0 36F#0000000000000000
(1779526305.139312) can0 370#0000FFFD00000000
(1779526305.139493) can0 373#0000000000000000
(1779526305.139552) can0 3E6#0000000000000000
(1779526305.139675) can0 3EA#0000000000000000
(1779526305.139800) can0 3EB#00000000001E001E
(1779526305.139927) can0 3ED#0000000000000000
(1779526305.140051) can0 474#0000000000000000
(1779526305.140176) can0 328#0000000000000000
(1779526305.145452) can0 320#13858D1F93830561
(1779526305.145503) can0 324#0005000500080009
(1779526305.148743) can0 328#0000000000000000
(1779526305.149957) can0 360#0000040500510000
(1779526305.150005) can0 361#041903F500000000
(1779526305.150140) can0 362#00000000001E0000
(1779526305.150259) can0 374#0000000000000000
(1779526305.150390) can0 3E7#0000000400000000
(1779526305.150515) can0 3E8#0000000000000000
(1779526305.150645) can0 3E9#0000000003B70000
(1779526305.150755) can0 3EC#0000000000000000
(1779526305.150875) can0 471#0016000104050000
(1779526305.151011) can0 476#0000000000000000
(1779526305.151133) can0 6D0#28000000C8000000
(1779526305.151282) can0 6F4#0000000000000000
(1779526305.152740) can0 320#13848D1F937D0564
(1779526305.155131) can0 70C#05
(1779526305.155665) can0 324#000B000900050007
(1779526305.156524) can0 6D1#02ED026E64000000
(1779526305.158927) can0 328#0000000000000000
(1779526305.159500) can0 3E5#0100000000000000
(1779526305.159550) can0 363#0000000000000CE4
(1779526305.159677) can0 364#0D90000000000000
(1779526305.159800) can0 368#095A000000000000
(1779526305.159931) can0 375#0000000000000000
(1779526305.160056) can0 3EA#0000000000000000
(1779526305.160187) can0 3EB#00000000001E001E
(1779526305.160312) can0 3ED#0000000000000000
(1779526305.160500) can0 3EE#0000000000000000
(1779526305.160618) can0 470#095A00000000FCFD
(1779526305.160743) can0 6D0#0203E803E8000000
(1779526305.160883) can0 6D3#81010D2400000000
(1779526305.161964) can0 6D4#250033C807F30000
(1779526305.162058) can0 6D6#000134303454333D
(1779526305.163393) can0 6D0#40000003E8000000
(1779526305.163969) can0 320#13888D2693810561
(1779526305.165965) can0 324#0009000900080007
(1779526305.169807) can0 328#0000000000000000
(1779526305.170441) can0 360#0000040300510000
(1779526305.170571) can0 361#041603F500000000
(1779526305.170575) can0 362#00000000001E0000
(1779526305.170688) can0 369#0000000000000000
(1779526305.170813) can0 36A#0000000000000000
(1779526305.170938) can0 36B#0065000000000000
(1779526305.171063) can0 376#0000000000000000
(1779526305.171193) can0 3EC#0000000000000000
(1779526305.171360) can0 3EF#0000000000000000
(1779526305.171546) can0 471#0016000104030000
(1779526305.172297) can0 320#13888D209385055C
(1779526305.172494) can0 6D0#29000000C8000000
(1779526305.176350) can0 324#0008000500080008
(1779526305.178693) can0 328#0000000000000000
(1779526305.180941) can0 3E5#0100000000000000
(1779526305.181039) can0 364#0D83000000000000
(1779526305.181169) can0 36C#0000000000000000
(1779526305.181295) can0 36D#0000000000000000
(1779526305.181482) can0 36E#0000000000000000
(1779526305.181550) can0 3EA#0000000000000000
(1779526305.181677) can0 3EB#00000000001E001E
(1779526305.181799) can0 3ED#0000000000000000
(1779526305.181925) can0 472#0000000000000000
(1779526305.182050) can0 473#0000000000000000
(1779526305.182155) can0 6D1#28ED021900000000
(1779526305.182915) can0 320#13808D2093870568
(1779526305.185005) can0 6D3#8201138400000000
(1779526305.185100) can0 2B3#100112
(1779526305.185209) can0 2B1#09940000500000A4
(1779526305.187124) can0 324#0008000700070007
(1779526305.188945) can0 328#0000000000000000
(1779526305.190430) can0 6D4#260033B900000000
(1779526305.191313) can0 360#0000040300510000
(1779526305.191377) can0 361#041603F500000000
(1779526305.191503) can0 362#00000000001E0000
(1779526305.191627) can0 36F#0000000000000000
(1779526305.191758) can0 370#0000FFFD00000000
(1779526305.191867) can0 3E6#0000000000000000
(1779526305.191993) can0 3EC#0000000000000000
(1779526305.192120) can0 471#0015000104030000
(1779526305.192249) can0 474#0000000000000000
(1779526305.192384) can0 477#FFFF000000000000
(1779526305.193054) can0 320#13878D2293810567
(1779526305.194276) can0 6D0#20000000C8000000
(1779526305.195783) can0 324#00080009000B0008
(1779526305.199290) can0 328#0000000000000000
(1779526305.201416) can0 3E5#0100000000000000
(1779526305.201482) can0 364#0D83000000000000
(1779526305.201507) can0 3E7#0000000400000000
(1779526305.201628) can0 3E8#0000000000000000
(1779526305.201759) can0 3E9#0000000003B70000
(1779526305.201866) can0 3EA#0000000000000000
(1779526305.201990) can0 3EB#00000000001E001E
(1779526305.202118) can0 3ED#0000000000000000
(1779526305.202242) can0 476#0000000000000000
(1779526305.202372) can0 6F4#0000000000000000
(1779526305.202502) can0 6F7#000001C20D3B0000
(1779526305.202758) can0 320#13878D2093830561
(1779526305.203890) can0 6D6#01005F292DEA01A9
(1779526305.205914) can0 324#0005000700090005
(1779526305.208217) can0 328#0000000000000000
(1779526305.210142) can0 6D3#8300055E00000000
(1779526305.212613) can0 360#0000040400510000
(1779526305.212705) can0 361#041803F500000000
(1779526305.212829) can0 362#00000000001E0000
(1779526305.212964) can0 363#0000000000000CE4
(1779526305.213092) can0 368#095A000000000000
(1779526305.213188) can0 3E0#0DE30C9400000D79
(1779526305.213313) can0 3EC#0000000000000000
(1779526305.213479) can0 3EE#0000000000000000
(1779526305.213573) can0 470#095A00000000FCFD
(1779526305.213697) can0 320#13838D2393870563
(1779526305.213798) can0 471#0015000104040000
(1779526305.213925) can0 6D0#03000003E8000000
(1779526305.214645) can0 37F#04B3000000000000
(1779526305.215954) can0 6D0#2103E800C8000000
(1779526305.216349) can0 324#0009000500070007
(1779526305.218075) can0 60D#221710009600
(1779526305.219005) can0 328#0000000000000000
(1779526305.221503) can0 6D4#2700006700000000
(1779526305.222906) can0 3E5#0100000000000000
(1779526305.222979) can0 364#0D90000000000000
(1779526305.223102) can0 369#0000000000000000
(1779526305.223226) can0 36A#0000000000000000
(1779526305.223349) can0 36B#0065000000000000
(1779526305.223480) can0 371#0000000000000000
(1779526305.223653) can0 3E1#0BE5000000000000
(1779526305.223725) can0 3EA#0000000000000000
(1779526305.223848) can0 3EB#00000000001E001E
(1779526305.223954) can0 3ED#0000000000000000
(1779526305.224085) can0 3EF#0000000000000000
(1779526305.224210) can0 320#13888D2293800565
(1779526305.225680) can0 324#0007000700070007
(1779526305.229662) can0 328#0000000000000000
(1779526305.232894) can0 60D#2200180200
(1779526305.233339) can0 320#13858D2093840561
(1779526305.233924) can0 360#0000040300510000
(1779526305.233989) can0 361#041803F500000000
(1779526305.234121) can0 362#00000000001E0000
(1779526305.234217) can0 36C#0000000000000000
(1779526305.234342) can0 36D#0000000000000000
(1779526305.234490) can0 36E#0000000000000000
(1779526305.234666) can0 372#00820000000003F5
(1779526305.234740) can0 3E2#02EE0000FFFF0000
(1779526305.234914) can0 3EC#0000000000000000
(1779526305.234970) can0 471#0015000004030000
(1779526305.235097) can0 472#0000000000000000
(1779526305.235221) can0 6D1#29ED021900000000
(1779526305.235974) can0 324#0009000500090005
(1779526305.236083) can0 6D3#6000000900000000
(1779526305.236188) can0 2B3#100112
(1779526305.236310) can0 2B1#09940000500000A4
(1779526305.237541) can0 6D0#22000000C8000000
(1779526305.239943) can0 328#0000000000000000
(1779526305.241191) can0 6D1#6001000009C4000C
(1779526305.243198) can0 320#137F8D2293880555
(1779526305.243882) can0 3E5#0100000000000000
(1779526305.244006) can0 364#0D83000000000000
(1779526305.244130) can0 36F#0000000000000000
(1779526305.244265) can0 370#0000FFFD00000000
(1779526305.244371) can0 373#0000000000000000
(1779526305.244499) can0 3E3#0000000000000000
(1779526305.244624) can0 3E6#0000000000000000
(1779526305.244749) can0 3EA#0000000000000000
(1779526305.244879) can0 3EB#00000000001E001E
(1779526305.245006) can0 3ED#0000000000000000
(1779526305.245131) can0 474#0000000000000000
(1779526305.245266) can0 324#0009000900070005
(1779526305.246332) can0 60D#220018030000
(1779526305.246755) can0 6D6#02000CDF006B13EA
(1779526305.250241) can0 328#0000000000000000
(1779526305.252227) can0 320#13838D2093830565
(1779526305.253533) can0 6D4#2800000E00000000
(1779526305.254267) can0 360#0000040300510000
(1779526305.254381) can0 361#041803F500000000
(1779526305.254497) can0 362#00000000001E0000
(1779526305.254638) can0 374#0000000000000000
(1779526305.254766) can0 3E4#0001000000000080
(1779526305.254885) can0 3E7#0000000400000000
(1779526305.255006) can0 3E8#0000000000000000
(1779526305.255131) can0 3E9#0000000003B70000
(1779526305.255254) can0 3EC#0000000000000000
(1779526305.255423) can0 471#0015000004030000
(1779526305.255551) can0 476#0000000000000000
(1779526305.255671) can0 6F4#0000000000000000
(1779526305.256702) can0 324#0007000700090005
(1779526305.256772) can0 6D4#250033FC02DC0000
(1779526305.258207) can0 328#0000000000000000
(1779526305.259826) can0 60D#220018050000
(1779526305.260923) can0 6D3#6100000500000000
(1779526305.262524) can0 6D0#23000000C8000000
(1779526305.263518) can0 320#13878D1E9384055D
(1779526305.265246) can0 3E5#0100000000000000
(1779526305.265326) can0 363#0000000000000CE4
(1779526305.265472) can0 364#0D83000000000000
(1779526305.265573) can0 368#095A000000000000
(1779526305.265698) can0 375#0000000000000000
(1779526305.265823) can0 3EA#0000000000000000
(1779526305.265949) can0 3EB#00000000001E001E
(1779526305.266073) can0 3ED#0000000000000000
(1779526305.266179) can0 3EE#0000000000000000
(1779526305.266304) can0 470#095A00000000FCFD
(1779526305.266472) can0 324#0009000700080007
(1779526305.266550) can0 6D0#00000003E8000000
(1779526305.266674) can0 6F0#0000000000000000
(1779526305.268474) can0 6D0#41000003E8000000
(1779526305.268609) can0 328#0000000000000000
(1779526305.273155) can0 320#13858D2393850560
(1779526305.275568) can0 6D1#810207D003E80000
(1779526305.276049) can0 360#0000040300510000
(1779526305.276116) can0 361#041D03F500000000
(1779526305.276300) can0 362#00000000001E0000
(1779526305.276372) can0 369#0000000000000000
(1779526305.276495) can0 36A#0000000000000000
(1779526305.276664) can0 324#0008000700090007
(1779526305.276734) can0 36B#0065000000000000
(1779526305.276897) can0 376#0000000000000000
(1779526305.277001) can0 3EC#0000000000000000
(1779526305.277161) can0 3EF#0000000000000000
(1779526305.277227) can0 471#0015000004030000
(1779526305.277416) can0 6F1#0000000000000000
(1779526305.279765) can0 328#0000000000000000
(1779526305.282322) can0 6D1#03EB027D7D000000
(1779526305.283884) can0 320#137C8D2293840563
(1779526305.285168) can0 6D3#6200000900000000
(1779526305.286502) can0 3E5#0100000000000000
(1779526305.286627) can0 364#0D83000000000000
(1779526305.286729) can0 36C#0000000000000000
(1779526305.286852) can0 36D#0000000000000000
(1779526305.286978) can0 36E#0000000000000000
(1779526305.287095) can0 324#0007000700080005
(1779526305.287197) can0 3EA#0000000000000000
(1779526305.287334) can0 3EB#00000000001E001E
(1779526305.287494) can0 2B3#100112
(1779526305.287525) can0 2B1#09940000500000A4
(1779526305.287658) can0 3ED#0000000000000000
(1779526305.287782) can0 472#0000000000000000
(1779526305.287912) can0 473#0000000000000000
(1779526305.288041) can0 6F2#0000000000000000
(1779526305.288741) can0 6D4#260033D700000000
(1779526305.288927) can0 328#0000000000000000
(1779526305.288958) can0 6D6#03251F1E1F32000C
(1779526305.290091) can0 6D0#24000000C8000000
(1779526305.292776) can0 320#13858D2093800563
(1779526305.294267) can0 6D1#20ED021900000000
(1779526305.295393) can0 324#0009000500080005
(1779526305.297160) can0 360#0000040300510000
(1779526305.297251) can0 361#041B03F500000000
(1779526305.297381) can0 362#00000000001E0000
(1779526305.297500) can0 36F#0000000000000000
(1779526305.297631) can0 370#0000FFFD00000000
(1779526305.297757) can0 3E6#0000000000000000
(1779526305.297881) can0 3EC#0000000000000000
(1779526305.298007) can0 471#0011000004030000
(1779526305.298132) can0 474#0000000000000000
(1779526305.298241) can0 477#FFFF000000000000
(1779526305.298367) can0 6F3#0DA50DA500000000
(1779526305.299779) can0 328#0000000000000000
(1779526305.303102) can0 320#13888D2393850561
(1779526305.304627) can0 6F5#0100000000000000
(1779526305.305171) can0 70C#05
(1779526305.305780) can0 324#0009000500090008
(1779526305.310031) can0 328#0000000000000000
(1779526305.310066) can0 6D3#6300000700000000
(1779526305.311025) can0 3E5#0100000000000000
(1779526305.311062) can0 364#0D83000000000000
(1779526305.311214) can0 3E7#0000000400000000
(1779526305.311346) can0 3E8#0000000000000000
(1779526305.311553) can0 3E9#0000000003B70000
(1779526305.311564) can0 3EA#0000000000000000
(1779526305.311721) can0 3EB#00000000001E001E
(1779526305.311860) can0 3ED#0000000000000000
(1779526305.311929) can0 475#0000000000000000
(1779526305.312106) can0 476#0000000000000000
(1779526305.312232) can0 6D0#2503E800C8000000
(1779526305.312370) can0 6F4#0000000000000000
(1779526305.312542) can0 6F7#000001C20D3B0000
(1779526305.312939) can0 6D4#250033FC084C0000
(1779526305.313065) can0 320#13858D2393840565
(1779526305.317024) can0 324#0009000700070008
(1779526305.318624) can0 6D0#01000003E8000000
(1779526305.320633) can0 328#0000000000000000
(1779526305.320918) can0 360#0000040400510000
(1779526305.320981) can0 361#041903F500000000
(1779526305.321105) can0 362#00000000001E0000
(1779526305.321236) can0 363#0000000000000CE4
(1779526305.321342) can0 368#095A000000000000
(1779526305.321503) can0 3EC#0000000000000000
(1779526305.321671) can0 3EE#0000000000000000
(1779526305.321801) can0 470#095A00000000FCFD
(1779526305.321863) can0 471#0013000004040000
(1779526305.322033) can0 6F6#0000000000000000
(1779526305.323091) can0 320#13888D2293800565
(1779526305.325858) can0 324#0008000700070008
(1779526305.326770) can0 37F#04B3000000000000
(1779526305.330793) can0 328#0000000000000000
(1779526305.330837) can0 6D6#0400336C038B0000
(1779526305.331815) can0 3E5#0100000000000000
(1779526305.331961) can0 364#0D8E000000000000
(1779526305.332025) can0 369#0000000000000000
(1779526305.332207) can0 36A#0000000000000000
(1779526305.332341) can0 36B#0065000000000000
(1779526305.332412) can0 371#0000000000000000
(1779526305.332575) can0 3EA#0000000000000000
(1779526305.332705) can0 3EB#00000000001E001E
(1779526305.332836) can0 3ED#0000000000000000
(1779526305.332979) can0 3EF#0000000000000000
(1779526305.333048) can0 469#0C7B000000000000
(1779526305.333180) can0 6D0#2603E800C8000000
(1779526305.333382) can0 320#13848D249385055D
(1779526305.335120) can0 6D3#8000138700000000
(1779526305.335232) can0 324#000B000900090007
(1779526305.338629) can0 2B3#100112
(1779526305.338710) can0 2B1#09940000500000A4
(1779526305.339533) can0 328#0000000000000000
(1779526305.342292) can0 360#0000040400510000
(1779526305.342333) can0 361#041903F500000000
(1779526305.342541) can0 362#00000000001E0000
(1779526305.342591) can0 36C#0000000000000000
(1779526305.342770) can0 36D#0000000000000000
(1779526305.342882) can0 36E#0000000000000000
(1779526305.343006) can0 372#00820000000003F5
(1779526305.343134) can0 3EC#0000000000000000
(1779526305.343259) can0 471#0013000004040000
(1779526305.343340) can0 472#0000000000000000
(1779526305.343482) can0 6F8#00000000000003E8
(1779526305.343726) can0 320#13888D2393850560
(1779526305.343850) can0 6D4#260033B900000000
(1779526305.346108) can0 6D1#21ED022300000000
(1779526305.347770) can0 324#0009000500070007
(1779526305.348499) can0 328#0000000000000000
(1779526305.350870) can0 100#000000EF6F000000
(1779526305.350987) can0 100#01FFFFEF00000000
(1779526305.351098) can0 100#0400000000000000
(1779526305.351231) can0 100#0200000000000000
(1779526305.351351) can0 100#0300000000000000
(1779526305.352693) can0 320#13888D1F93870563
(1779526305.353382) can0 3E5#0100000000000000
(1779526305.353505) can0 364#0D8E000000000000
(1779526305.353674) can0 36F#0000000000000000
(1779526305.353789) can0 370#0000FFFD00000000
(1779526305.353919) can0 373#0000000000000000
(1779526305.353991) can0 3E6#0000000000000000
(1779526305.354119) can0 3EA#0000000000000000
(1779526305.354247) can0 3EB#00000000001E001E
(1779526305.354372) can0 3ED#0000000000000000
(1779526305.354580) can0 474#0000000000000000
(1779526305.354607) can0 6D0#27000000C8000000
(1779526305.356905) can0 324#000B000500070007
(1779526305.358583) can0 328#0000000000000000
(1779526305.359683) can0 6D3#81010D2300000000
(1779526305.362999) can0 320#13848D209383055E
(1779526305.365683) can0 6D4#250033DE02DC0000
(1779526305.365719) can0 324#0009000500070005
(1779526305.367104) can0 360#0000040300510000
(1779526305.367146) can0 361#041603F500000000
(1779526305.367194) can0 362#00000000001E0000
(1779526305.367371) can0 374#0000000000000000
(1779526305.367539) can0 3E7#0000000400000000
(1779526305.367598) can0 3E8#0000000000000000
(1779526305.367698) can0 3E9#0000000003B70000
(1779526305.367909) can0 3EC#0000000000000000
(1779526305.367960) can0 471#0015000104030000
(1779526305.368153) can0 476#0000000000000000
(1779526305.368208) can0 6D1#414B000028000000
(1779526305.368363) can0 6F4#0000000000000000
(1779526305.369045) can0 328#0000000000000000
(1779526305.371428) can0 6D0#0203E803E8000000
(1779526305.372263) can0 6D6#05001980002636B1
(1779526305.373846) can0 320#13878D2393870561
(1779526305.374828) can0 6D0#28000000C8000000
(1779526305.376222) can0 324#00080007000C0005
(1779526305.377397) can0 3E5#0100000000000000
(1779526305.377516) can0 363#0000000000000CE4
(1779526305.377631) can0 364#0D90000000000000
(1779526305.377748) can0 368#095A000000000000
(1779526305.377862) can0 375#0000000000000000
(1779526305.377997) can0 3EA#0000000000000000
(1779526305.378122) can0 3EB#00000000001E001E
(1779526305.378247) can0 3ED#0000000000000000
(1779526305.378379) can0 3EE#0000000000000000
(1779526305.378508) can0 470#095A00000000FCFD
(1779526305.378613) can0 6D0#40000003E8000000
(1779526305.380798) can0 328#0000000000000000
(1779526305.381656) can0 6D1#6101000009C4000C
(1779526305.382818) can0 320#13878D1F93830564
(1779526305.385638) can0 6D3#8201138800000000
(1779526305.385713) can0 324#0007000700080008
(1779526305.388006) can0 360#0000040300510000
(1779526305.388050) can0 361#041403F500000000
(1779526305.388172) can0 362#00000000001E0000
(1779526305.388303) can0 369#0000000000000000
(1779526305.388495) can0 36A#0000000000000000
(1779526305.388532) can0 36B#0065000000000000
(1779526305.388671) can0 376#0000000000000000
(1779526305.388796) can0 3EC#0000000000000000
(1779526305.388914) can0 3EF#0000000000000000
(1779526305.389037) can0 328#0000000000000000
(1779526305.389161) can0 471#0012000004030000
(1779526305.390917) can0 2B3#100112
(1779526305.391011) can0 2B1#09940000500000A3
(1779526305.393652) can0 320#13848D2393850561
(1779526305.396289) can0 324#0009000900070005
(1779526305.396357) can0 6D4#260033D700000000
(1779526305.399286) can0 3E5#0100000000000000
(1779526305.399342) can0 364#0D90000000000000
(1779526305.399533) can0 36C#0000000000000000
(1779526305.399594) can0 36D#0000000000000000
(1779526305.399772) can0 36E#0000000000000000
(1779526305.399911) can0 3EA#0000000000000000
(1779526305.399975) can0 328#0000000000000000
(1779526305.400138) can0 3EB#00000000001E001E
(1779526305.400224) can0 3ED#0000000000000000
(1779526305.400369) can0 472#0000000000000000
(1779526305.400508) can0 473#0000000000000000
(1779526305.401793) can0 6D0#29000000C8000000
(1779526305.403206) can0 320#13858D26937F0561
(1779526305.403819) can0 6D1#22ED022300000000
(1779526305.405817) can0 324#0009000700090008
(1779526305.407031) can0 6D1#820207D003E80000
(1779526305.408640) can0 328#0000000000000000
(1779526305.409852) can0 6D3#8300056400000000
(1779526305.410051) can0 6D1#00ED027D7D0A0000
(1779526305.413939) can0 320#13888D1E93800564
(1779526305.413986) can0 6D5#1001090000000000
(1779526305.414781) can0 360#0000040200510000
(1779526305.414905) can0 361#041603F500000000
(1779526305.415029) can0 362#00000000001E0000
(1779526305.415153) can0 36F#0000000000000000
(1779526305.415283) can0 370#0000FFFD00000000
(1779526305.415393) can0 3E6#0000000000000000
(1779526305.415530) can0 3EC#0000000000000000
(1779526305.415702) can0 471#0013000004020000
(1779526305.415786) can0 474#0000000000000000
(1779526305.415910) can0 324#000F000700090007
(1779526305.416020) can0 477#FFFF000000000000
(1779526305.419571) can0 328#0000000000000000
(1779526305.422819) can0 6D4#25003403076E0000
(1779526305.422933) can0 320#13838D229385055E
(1779526305.425141) can0 3E5#0100000000000000
(1779526305.425254) can0 364#0D83000000000000
(1779526305.425380) can0 3E7#0000000400000000
(1779526305.425504) can0 3E8#0000000000000000
(1779526305.425632) can0 3E9#0000000003B70000
(1779526305.425766) can0 3EA#0000000000000000
(1779526305.425884) can0 3EB#00000000001E001E
(1779526305.426018) can0 3ED#0000000000000000
(1779526305.426144) can0 476#0000000000000000
(1779526305.426267) can0 6D0#20000000C8000000
(1779526305.426383) can0 6F4#0000000000000000
(1779526305.426570) can0 6F7#000001C20D3B0000
(1779526305.426853) can0 324#0007000700090009
(1779526305.427554) can0 60A#221710009600
(1779526305.428644) can0 328#0000000000000000
(1779526305.429531) can0 6D0#03000003E8000000
(1779526305.433445) can0 320#13888D2093800563
(1779526305.434459) can0 6D3#6000000800000000
(1779526305.435370) can0 360#0000040300510000
(1779526305.435411) can0 361#041403F500000000
(1779526305.435530) can0 362#00000000001E0000
(1779526305.435562) can0 363#0000000000000CE4
(1779526305.435738) can0 368#095A000000000000
(1779526305.435866) can0 3E0#0DE30C9400000D79
(1779526305.435984) can0 3EC#0000000000000000
(1779526305.436119) can0 3EE#0000000000000000
(1779526305.436239) can0 470#095A00000000FCFD
(1779526305.436391) can0 471#0016000004030000
(1779526305.436583) can0 324#0007000700080008
(1779526305.436986) can0 37F#04B2000000000000
(1779526305.438798) can0 328#0000000000000000
(1779526305.439205) can0 430#750000
(1779526305.440508) can0 60A#2200180200
(1779526305.441042) can0 2B3#100112
(1779526305.441105) can0 2B1#09940000500000A4
(1779526305.443699) can0 320#137F8D1F93830564
(1779526305.447205) can0 324#00080007000B0007
(1779526305.449095) can0 328#0000000000000000
(1779526305.450069) can0 3E5#0100000000000000
(1779526305.450191) can0 364#0D83000000000000
(1779526305.450267) can0 369#0000000000000000
(1779526305.450394) can0 36A#0000000000000000
(1779526305.450517) can0 36B#0065000000000000
(1779526305.450612) can0 371#0000000000000000
(1779526305.450749) can0 3E1#0BE5000000000000
(1779526305.450863) can0 3EA#0000000000000000
(1779526305.450997) can0 3EB#00000000001E001E
(1779526305.451128) can0 3ED#0000000000000000
(1779526305.451254) can0 3EF#0000000000000000
(1779526305.451371) can0 6D0#2103E800C8000000
(1779526305.452275) can0 6D4#260033B200000000
(1779526305.454817) can0 320#13848D2393840559
(1779526305.455183) can0 70C#05
(1779526305.455367) can0 60A#220018030000
(1779526305.455842) can0 324#0008000700080009
(1779526305.455950) can0 6D6#0001343034543342
(1779526305.456275) can0 6D1#23ED021900000000
(1779526305.459892) can0 328#0000000000000000
(1779526305.459916) can0 6D3#6100000700000000
(1779526305.461691) can0 360#0000040300510000
(1779526305.461730) can0 361#041603F500000000
(1779526305.461845) can0 362#00000000001E0000
(1779526305.461961) can0 36C#0000000000000000
(1779526305.462076) can0 36D#0000000000000000
(1779526305.462200) can0 36E#0000000000000000
(1779526305.462316) can0 372#00820000000003F5
(1779526305.462528) can0 3E2#02EE0000FFFF0000
(1779526305.462549) can0 3EC#0000000000000000
(1779526305.462691) can0 320#13848D2093850561
(1779526305.462817) can0 471#0013000004030000
(1779526305.462934) can0 472#0000000000000000
(1779526305.466724) can0 324#0009000700080009
(1779526305.466929) can0 60A#220018050000
(1779526305.469950) can0 328#0000000000000000
(1779526305.471454) can0 3E5#0100000000000000
(1779526305.471573) can0 364#0D83000000000000
(1779526305.471687) can0 36F#0000000000000000
(1779526305.471820) can0 370#0000FFFD00000000
(1779526305.471945) can0 373#0000000000000000
(1779526305.472078) can0 3E3#0000000000000000
(1779526305.472209) can0 3E6#0000000000000000
(1779526305.472336) can0 3EA#0000000000000000
(1779526305.472392) can0 3EB#00000000001E001E
(1779526305.472568) can0 3ED#0000000000000000
(1779526305.472698) can0 474#0000000000000000
(1779526305.472821) can0 6D0#22000000C8000000
(1779526305.473270) can0 320#13878D1F9387055E
(1779526305.476526) can0 324#0008000700070007
(1779526305.478761) can0 6D0#41000003E8000000
(1779526305.480306) can0 328#0000000000000000
(1779526305.482678) can0 360#0000040300510000
(1779526305.482708) can0 361#041803F500000000
(1779526305.482731) can0 362#00000000001E0000
(1779526305.482920) can0 374#0000000000000000
(1779526305.483048) can0 3E4#0001000000000080
(1779526305.483235) can0 3E7#0000000400000000
(1779526305.483260) can0 3E8#0000000000000000
(1779526305.483386) can0 3E9#0000000003B70000
(1779526305.483532) can0 3EC#0000000000000000
(1779526305.483673) can0 471#0015000004030000
(1779526305.483811) can0 476#0000000000000000
(1779526305.483873) can0 6F4#0000000000000000
(1779526305.485802) can0 320#13838D2093810565
(1779526305.485881) can0 6D4#2500340302C60000
(1779526305.486011) can0 324#0007000700080007
(1779526305.486112) can0 6D3#6200000800000000
(1779526305.486338) can0 6D0#00000003E8000000
(1779526305.488944) can0 328#0000000000000000
(1779526305.492193) can0 2B3#100112
(1779526305.492284) can0 2B1#09940000500000A4
(1779526305.492484) can0 3E5#0100000000000000
(1779526305.492611) can0 363#0000000000000CE4
(1779526305.492729) can0 364#0D83000000000000
(1779526305.492832) can0 368#095A000000000000
(1779526305.492980) can0 375#0000000000000000
(1779526305.493089) can0 3EA#0000000000000000
(1779526305.493215) can0 320#13838D2793830563
(1779526305.493338) can0 3EB#00000000001E001E
(1779526305.493490) can0 3ED#0000000000000000
(1779526305.493577) can0 3EE#0000000000000000
(1779526305.493701) can0 470#095A00000000FCFD
(1779526305.493832) can0 6F0#0000000000000000
(1779526305.494033) can0 6D0#23000000C8000000
(1779526305.495054) can0 324#0009000900070007
(1779526305.497670) can0 6D6#01005F292DEA01AC
(1779526305.499493) can0 328#0000000000000000
(1779526305.503645) can0 320#13888D1F93870561
(1779526305.504878) can0 360#0000040300510000
(1779526305.504907) can0 361#041203F500000000
(1779526305.505011) can0 362#00000000001E0000
(1779526305.505133) can0 369#0000000000000000
(1779526305.505258) can0 36A#0000000000000000
(1779526305.505384) can0 36B#0065000000000000
(1779526305.505503) can0 376#0000000000000000
(1779526305.505628) can0 3EC#0000000000000000
(1779526305.505753) can0 3EF#0000000000000000
(1779526305.505884) can0 471#0015000004030000
(1779526305.506009) can0 6F1#0000000000000000
(1779526305.507779) can0 324#0007000900090007
(1779526305.507978) can0 6D1#24ED021900000000
(1779526305.509678) can0 328#0000000000000000
(1779526305.509728) can0 6D3#6300000700000000
(1779526305.511940) can0 6D1#6201000009C4000C
(1779526305.513360) can0 320#13878D2393850565
(1779526305.513480) can0 6D4#260033C000000000
(1779526305.515603) can0 324#0009000800090005
(1779526305.518662) can0 3E5#0100000000000000
(1779526305.518712) can0 364#0D83000000000000
(1779526305.518757) can0 36C#0000000000000000
(1779526305.518785) can0 36D#0000000000000000
(1779526305.518898) can0 36E#0000000000000000
(1779526305.519022) can0 3EA#0000000000000000
(1779526305.519153) can0 3EB#00000000001E001E
(1779526305.519279) can0 3ED#0000000000000000
(1779526305.519399) can0 472#0000000000000000
(1779526305.519542) can0 473#0000000000000000
(1779526305.519643) can0 6D0#24000000C8000000
(1779526305.519774) can0 328#0000000000000000
(1779526305.519899) can0 6F2#0000000000000000
(1779526305.523591) can0 320#13888D1E93810561
(1779526305.525958) can0 324#0007000C00080008
(1779526305.528199) can0 328#0000000000000000
(1779526305.529027) can0 360#0000040300510000
(1779526305.529082) can0 361#041103F500000000
(1779526305.529259) can0 362#00000000001E0000
(1779526305.529359) can0 36F#0000000000000000
(1779526305.529529) can0 370#0000FFFD00000000
(1779526305.529582) can0 3E6#0000000000000000
(1779526305.529768) can0 3EC#0000000000000000
(1779526305.529869) can0 471#000E000004030000
(1779526305.529997) can0 474#0000000000000000
(1779526305.530088) can0 477#FFFF000000000000
(1779526305.530251) can0 6F3#0DA50DA500000000
(1779526305.534127) can0 320#13848D1F93880561
(1779526305.535135) can0 6D1#83000FA00BB80000
(1779526305.536413) can0 6D3#8000138400000000
(1779526305.536525) can0 324#0009000800050007
(1779526305.538394) can0 6D4#250033CF08870000
(1779526305.538516) can0 328#0000000000000000
(1779526305.538777) can0 6D1#01ED027D7D000000
(1779526305.540427) can0 6D6#02000CDF006B13EA
(1779526305.540968) can0 3E5#0100000000000000
(1779526305.541082) can0 364#0D83000000000000
(1779526305.541206) can0 3E7#0000000400000000
(1779526305.541338) can0 3E8#0000000000000000
(1779526305.541536) can0 3E9#0000000003B70000
(1779526305.541636) can0 3EA#0000000000000000
(1779526305.541706) can0 3EB#00000000001E001E
(1779526305.541831) can0 3ED#0000000000000000
(1779526305.541956) can0 475#0000000000000000
(1779526305.542081) can0 476#0000000000000000
(1779526305.542211) can0 6D0#2503E800C8000000
(1779526305.542404) can0 6F4#0000000000000000
(1779526305.542495) can0 6F7#000001C20D3B0000
(1779526305.543441) can0 2B3#100112
(1779526305.543561) can0 2B1#09940000500000A4
(1779526305.543684) can0 37F#04B2000000000000
(1779526305.544262) can0 320#13848D2493810565
(1779526305.544484) can0 6D0#01000003E8000000
(1779526305.546518) can0 324#0008000700090005
(1779526305.550045) can0 328#0000000000000000
(1779526305.552519) can0 360#0000040300510000
(1779526305.552637) can0 361#041603F500000000
(1779526305.552773) can0 362#00000000001E0000
(1779526305.552871) can0 363#0000000000000CE4
(1779526305.552994) can0 368#095A000000000000
(1779526305.553119) can0 3EC#0000000000000000
(1779526305.553242) can0 320#13888D1F9380056C
(1779526305.553371) can0 3EE#0000000000000000
(1779526305.553496) can0 470#095A00000000FCFD
(1779526305.553605) can0 471#0015000004030000
(1779526305.553726) can0 6F6#0000000000000000
(1779526305.556906) can0 324#000700070008000D
(1779526305.558912) can0 328#0000000000000000
(1779526305.561323) can0 6D3#81010D1F00000000
(1779526305.561680) can0 6D1#254D022300000000
(1779526305.562259) can0 3E5#0100000000000000
(1779526305.562400) can0 364#0D83000000000000
(1779526305.562533) can0 369#0000000000000000
(1779526305.562665) can0 36A#0000000000000000
(1779526305.562817) can0 36B#0065000000000000
(1779526305.562905) can0 371#0000000000000000
(1779526305.563049) can0 3EA#0000000000000000
(1779526305.563141) can0 3EB#00000000001E001E
(1779526305.563258) can0 3ED#0000000000000000
(1779526305.563378) can0 3EF#0000000000000000
(1779526305.563485) can0 320#13838D239387055E
(1779526305.563604) can0 469#0C79000000000000
(1779526305.565569) can0 6D0#2603E800C8000000
(1779526305.567008) can0 324#0009000700070007
(1779526305.568601) can0 328#0000000000000000
(1779526305.570383) can0 6D4#2600339B00000000
(1779526305.572311) can0 360#0000040300510000
(1779526305.572355) can0 361#041603F500000000
(1779526305.572538) can0 362#00000000001E0000
(1779526305.572606) can0 36C#0000000000000000
(1779526305.572767) can0 36D#0000000000000000
(1779526305.572898) can0 36E#0000000000000000
(1779526305.573018) can0 372#00820000000003F5
(1779526305.573134) can0 3EC#0000000000000000
(1779526305.573267) can0 471#0011000004030000
(1779526305.573404) can0 472#0000000000000000
(1779526305.573533) can0 6F8#00000000000003E8
(1779526305.573963) can0 320#13888D249380056E
(1779526305.577519) can0 324#0008000700070008
(1779526305.580413) can0 328#0000000000000000
(1779526305.582699) can0 6D6#03251F1E1F320006
(1779526305.582782) can0 320#13858D1F93850567
(1779526305.583131) can0 3E5#0100000000000000
(1779526305.583315) can0 364#0D83000000000000
(1779526305.583370) can0 36F#0000000000000000
(1779526305.583580) can0 370#0000FFFD00000000
(1779526305.583655) can0 373#0000000000000000
(1779526305.583858) can0 3E6#0000000000000000
(1779526305.583906) can0 3EA#0000000000000000
(1779526305.584003) can0 3EB#00000000001E001E
(1779526305.584125) can0 3ED#0000000000000000
(1779526305.584252) can0 474#0000000000000000
(1779526305.584372) can0 6D0#40000003E8000000
(1779526305.584818) can0 6D3#8201138700000000
(1779526305.586190) can0 324#0009000700090007
(1779526305.587920) can0 6D0#27000000C8000000
(1779526305.588628) can0 328#0000000000000000
(1779526305.591810) can0 6D4#250033FC02F90000
(1779526305.593517) can0 320#13888D2293870560
(1779526305.594194) can0 360#0000040300510000
(1779526305.594285) can0 361#041203F500000000
(1779526305.594538) can0 362#00000000001E0000
(1779526305.594562) can0 374#0000000000000000
(1779526305.594609) can0 2B3#100112
(1779526305.594752) can0 2B1#09940000500000A4
(1779526305.594880) can0 3E7#0000000400000000
(1779526305.595006) can0 3E8#0000000000000000
(1779526305.595098) can0 3E9#0000000003B70000
(1779526305.595222) can0 3EC#0000000000000000
(1779526305.595352) can0 471#0011000004030000
(1779526305.595484) can0 476#0000000000000000
(1779526305.595602) can0 6F4#0000000000000000
(1779526305.596689) can0 324#00070004000B0007
(1779526305.598320) can0 6D0#0203E803E8000000
(1779526305.599119) can0 328#0000000000000000
(1779526305.602764) can0 320#13888D2493810561
(1779526305.604891) can0 3E5#0100000000000000
(1779526305.605003) can0 363#0000000000000CE4
(1779526305.605133) can0 364#0D83000000000000
(1779526305.605257) can0 368#095A000000000000
(1779526305.605383) can0 375#0000000000000000
(1779526305.605504) can0 3EA#0000000000000000
(1779526305.605632) can0 3EB#00000000001E001E
(1779526305.605757) can0 3ED#0000000000000000
(1779526305.605892) can0 3EE#0000000000000000
(1779526305.605998) can0 470#095A00000000FCFD
(1779526305.606054) can0 70C#05
(1779526305.606783) can0 324#0008000700070009
(1779526305.609004) can0 328#0000000000000000
(1779526305.610711) can0 6D3#8300056400000000
(1779526305.611328) can0 6D0#28000000C8000000
(1779526305.612970) can0 320#13888D1C93840567
(1779526305.614924) can0 360#0000040300510000
(1779526305.614963) can0 361#041403F500000000
(1779526305.615067) can0 362#00000000001E0000
(1779526305.615192) can0 369#0000000000000000
(1779526305.615331) can0 36A#0000000000000000
(1779526305.615551) can0 36B#0065000000000000
(1779526305.615571) can0 376#0000000000000000
(1779526305.615746) can0 3EC#0000000000000000
(1779526305.615864) can0 3EF#0000000000000000
(1779526305.615994) can0 471#0011000104030000
(1779526305.616109) can0 6D1#26ED021900000000
(1779526305.616800) can0 324#0007000700070007
(1779526305.618530) can0 6D1#404B000028000000
(1779526305.619868) can0 328#0000000000000000
(1779526305.623336) can0 6D4#260033A300000000
(1779526305.623364) can0 320#137F8D249385055E
(1779526305.623530) can0 6D6#0400336C038C0000
(1779526305.625138) can0 3E5#0100000000000000
(1779526305.625265) can0 364#0D83000000000000
(1779526305.625394) can0 36C#0000000000000000
(1779526305.625536) can0 36D#0000000000000000
(1779526305.625655) can0 36E#0000000000000000
(1779526305.625781) can0 3EA#0000000000000000
(1779526305.625902) can0 3EB#00000000001E001E
(1779526305.626031) can0 3ED#0000000000000000
(1779526305.626152) can0 472#0000000000000000
(1779526305.626274) can0 473#0000000000000000
(1779526305.626699) can0 324#00090007000B0005
(1779526305.630571) can0 328#0000000000000000
(1779526305.630960) can0 60B#221710009600
(1779526305.632694) can0 6D0#29000000C8000000
(1779526305.634020) can0 320#13848D2393830561
(1779526305.635488) can0 6D3#6000000800000000
(1779526305.635608) can0 324#0009000800080007
(1779526305.638597) can0 328#0000000000000000
(1779526305.638959) can0 360#0000040300510000
(1779526305.638992) can0 361#041603F500000000
(1779526305.639168) can0 362#00000000001E0000
(1779526305.639293) can0 36F#0000000000000000
(1779526305.639423) can0 370#0000FFFD00000000
(1779526305.639544) can0 3E6#0000000000000000
(1779526305.639675) can0 3EC#0000000000000000
(1779526305.639801) can0 471#0011000004030000
(1779526305.639923) can0 474#0000000000000000
(1779526305.640050) can0 477#FFFF000000000000
(1779526305.640182) can0 6D1#6301000009C4000C
(1779526305.644538) can0 320#13878D1E93810567
(1779526305.644705) can0 60B#2200180200
(1779526305.645599) can0 324#00070005000B0007
(1779526305.645773) can0 2B3#100112
(1779526305.645943) can0 2B1#09940000500000A4
(1779526305.648405) can0 3E5#0100000000000000
(1779526305.648437) can0 364#0D83000000000000
(1779526305.648561) can0 3E7#0000000400000000
(1779526305.648684) can0 3E8#0000000000000000
(1779526305.648807) can0 3E9#0000000003B70000
(1779526305.648931) can0 3EA#0000000000000000
(1779526305.649065) can0 3EB#00000000001E001E
(1779526305.649189) can0 3ED#0000000000000000
(1779526305.649349) can0 476#0000000000000000
(1779526305.649452) can0 6F4#0000000000000000
(1779526305.649555) can0 6F7#000001C20D3B0000
(1779526305.649682) can0 328#0000000000000000
(1779526305.650935) can0 6D4#250033ED07AA0000
(1779526305.652007) can0 6D0#03000003E8000000
(1779526305.653369) can0 320#13838D1C93880560
(1779526305.653972) can0 37F#04B1000000000000
(1779526305.655645) can0 6D0#20000000C8000000
(1779526305.657522) can0 324#0009000800070008
(1779526305.658188) can0 60B#220018030000
(1779526305.658820) can0 328#0000000000000000
(1779526305.659234) can0 360#0000040300510000
(1779526305.659307) can0 361#041403F500000000
(1779526305.659398) can0 362#00000000001E0000
(1779526305.659532) can0 363#0000000000000CE4
(1779526305.659631) can0 368#095A000000000000
(1779526305.659755) can0 3E0#0DE30C9400000D79
(1779526305.660004) can0 3EC#0000000000000000
(1779526305.660024) can0 3EE#0000000000000000
(1779526305.660146) can0 470#095A00000000FCFD
(1779526305.660325) can0 471#0015000004030000
(1779526305.660894) can0 6D3#6100000500000000
(1779526305.664338) can0 320#13858D24937F0560
(1779526305.665520) can0 6D1#02ED026E64000000
(1779526305.666545) can0 324#0008000800070009
(1779526305.666637) can0 6D6#05001980002636B1
(1779526305.668767) can0 328#0000000000000000
(1779526305.669794) can0 3E5#0100000000000000
(1779526305.669909) can0 364#0D83000000000000
(1779526305.670038) can0 369#0000000000000000
(1779526305.670159) can0 36A#0000000000000000
(1779526305.670292) can0 36B#0065000000000000
(1779526305.670485) can0 371#0000000000000000
(1779526305.670568) can0 3E1#0BE5000000000000
(1779526305.670679) can0 3EA#0000000000000000
(1779526305.670779) can0 3EB#00000000001E001E
(1779526305.670918) can0 3ED#0000000000000000
(1779526305.671027) can0 3EF#0000000000000000
(1779526305.671127) can0 60B#220018050000
(1779526305.671257) can0 6D1#27ED022800000000
(1779526305.674390) can0 320#13848D2393830568
(1779526305.676158) can0 6D0#2103E800C8000000
(1779526305.677455) can0 324#0008000500090008
(1779526305.679163) can0 328#0000000000000000
(1779526305.682804) can0 6D4#260033A300000000
(1779526305.682846) can0 320#13838D1B93880561
(1779526305.683035) can0 360#0000040400510000
(1779526305.683158) can0 361#041403F500000000
(1779526305.683269) can0 362#00000000001E0000
(1779526305.683401) can0 36C#0000000000000000
(1779526305.683521) can0 36D#0000000000000000
(1779526305.683643) can0 36E#0000000000000000
(1779526305.683775) can0 372#00820000000003F5
(1779526305.683909) can0 3E2#02EE0000FFFF0000
(1779526305.684034) can0 3EC#0000000000000000
(1779526305.684159) can0 471#0018000004040000
(1779526305.684250) can0 472#0000000000000000
(1779526305.685493) can0 6D3#6200000900000000
(1779526305.685607) can0 324#0008000900070007
(1779526305.688334) can0 6D0#41000003E8000000
(1779526305.689343) can0 328#0000000000000000
(1779526305.692672) can0 320#13878D2293810561
(1779526305.693694) can0 3E5#0100000000000000
(1779526305.693762) can0 364#0D90000000000000
(1779526305.693892) can0 36F#0000000000000000
(1779526305.694017) can0 370#0000FFFD00000000
(1779526305.694113) can0 373#0000000000000000
(1779526305.694238) can0 3E3#0000000000000000
(1779526305.694363) can0 3E6#0000000000000000
(1779526305.694531) can0 3EA#0000000000000000
(1779526305.694643) can0 3EB#00000000001E001E
(1779526305.694767) can0 3ED#0000000000000000
(1779526305.694882) can0 474#0000000000000000
(1779526305.695250) can0 324#0007000900090007
(1779526305.697012) can0 2B3#100112
(1779526305.697087) can0 2B1#09940000500000A4
(1779526305.697909) can0 6D0#22000000C8000000
(1779526305.699035) can0 328#0000000000000000
(1779526305.704145) can0 320#13888D1F93800565
(1779526305.706984) can0 324#0007000500090007
(1779526305.707953) can0 6D5#1001090000000000
(1779526305.708071) can0 360#0000040300510000
(1779526305.708184) can0 361#041D03F500000000
(1779526305.708318) can0 362#00000000001E0000
(1779526305.708504) can0 374#0000000000000000
(1779526305.708567) can0 3E4#0001000000000080
(1779526305.708673) can0 3E7#0000000400000000
(1779526305.708797) can0 3E8#0000000000000000
(1779526305.708930) can0 3E9#0000000003B70000
(1779526305.709060) can0 3EC#0000000000000000
(1779526305.709186) can0 471#0013000004030000
(1779526305.709301) can0 476#0000000000000000
(1779526305.709492) can0 6D0#00000003E8000000
(1779526305.709556) can0 6F4#0000000000000000
(1779526305.710223) can0 328#0000000000000000
(1779526305.710337) can0 6D3#6300000900000000
(1779526305.713226) can0 320#13838D229384055E
(1779526305.713281) can0 6D4#2700007600000000
(1779526305.715997) can0 324#0009000400090007
(1779526305.719057) can0 328#0000000000000000
(1779526305.720640) can0 3E5#0100000000000000
(1779526305.720685) can0 363#0000000000000CE4
(1779526305.720830) can0 364#0D83000000000000
(1779526305.720853) can0 368#095A000000000000
(1779526305.720973) can0 375#0000000000000000
(1779526305.721104) can0 3EA#0000000000000000
(1779526305.721229) can0 3EB#00000000001E001E
(1779526305.721334) can0 3ED#0000000000000000
(1779526305.721498) can0 3EE#0000000000000000
(1779526305.721584) can0 470#095A00000000FCFD
(1779526305.721724) can0 6D0#23000000C8000000
(1779526305.721830) can0 6F0#0000000000000000
(1779526305.722619) can0 320#13848D279384055D
(1779526305.724122) can0 6D1#28ED021900000000
(1779526305.725569) can0 324#00090007000B0007
(1779526305.729281) can0 328#0000000000000000
(1779526305.732838) can0 320#13858D2293880561
(1779526305.733542) can0 360#0000040300510000
(1779526305.733628) can0 361#041603F500000000
(1779526305.733656) can0 362#00000000001E0000
(1779526305.733769) can0 369#0000000000000000
(1779526305.733894) can0 36A#0000000000000000
(1779526305.734019) can0 36B#0065000000000000
(1779526305.734143) can0 376#0000000000000000
(1779526305.734274) can0 3EC#0000000000000000
(1779526305.734480) can0 3EF#0000000000000000
(1779526305.734526) can0 471#0015000104030000
(1779526305.734644) can0 6F1#0000000000000000
(1779526305.735580) can0 6D3#8000138500000000
(1779526305.735674) can0 324#000800070009000D
(1779526305.738694) can0 328#0000000000000000
(1779526305.743506) can0 320#13878D2093850564
(1779526305.743552) can0 6D4#2800000700000000
(1779526305.744155) can0 3E5#0100000000000000
(1779526305.744257) can0 364#0D83000000000000
(1779526305.744382) can0 36C#0000000000000000
(1779526305.744504) can0 36D#0000000000000000
(1779526305.744634) can0 36E#0000000000000000
(1779526305.744760) can0 3EA#0000000000000000
(1779526305.744880) can0 3EB#00000000001E001E
(1779526305.745006) can0 3ED#0000000000000000
(1779526305.745141) can0 472#0000000000000000
(1779526305.745273) can0 473#0000000000000000
(1779526305.745377) can0 6D0#24000000C8000000
(1779526305.745504) can0 6F2#0000000000000000
(1779526305.745651) can0 324#0008000700070009
(1779526305.749516) can0 328#0000000000000000
(1779526305.749607) can0 6D6#000134323454333D
(1779526305.751370) can0 2B3#100112
(1779526305.751487) can0 2B1#09940000500000A3
(1779526305.754372) can0 320#13818D269381055D
(1779526305.754873) can0 360#0000040400520000
(1779526305.754954) can0 361#041803F500000000
(1779526305.755085) can0 362#00000000001E0000
(1779526305.755210) can0 36F#0000000000000000
(1779526305.755335) can0 370#0000FFFD00000000
(1779526305.755476) can0 3E6#0000000000000000
(1779526305.755578) can0 3EC#0000000000000000
(1779526305.755702) can0 471#0015000004040000
(1779526305.755828) can0 474#0000000000000000
(1779526305.755953) can0 324#000B000700070007
(1779526305.756078) can0 477#FFFF000000000000
(1779526305.756209) can0 6F3#0DA50DA500000000
(1779526305.756265) can0 70C#05
(1779526305.759028) can0 328#0000000000000000
(1779526305.760000) can0 6D3#81010D2600000000
(1779526305.760609) can0 6D0#01000003E8000000
(1779526305.763486) can0 37F#04B2000000000000
(1779526305.764525) can0 320#13888D1F93840565
(1779526305.765729) can0 3E5#0100000000000000
(1779526305.765776) can0 364#0D83000000000000
(1779526305.765839) can0 3E7#0000000400000000
(1779526305.766003) can0 3E8#0000000000000000
(1779526305.766122) can0 324#000D000700050007
(1779526305.766249) can0 3E9#0000000003B70000
(1779526305.766380) can0 3EA#0000000000000000
(1779526305.766502) can0 3EB#00000000001E001E
(1779526305.766606) can0 3ED#0000000000000000
(1779526305.766692) can0 475#0000000000000000
(1779526305.766818) can0 476#0000000000000000
(1779526305.766942) can0 6F4#0000000000000000
(1779526305.767067) can0 6F7#000001C20D3B0000
(1779526305.768739) can0 6D0#2503E800C8000000
(1779526305.770332) can0 328#0000000000000000
(1779526305.770972) can0 6D1#6001000009C4000C
(1779526305.774747) can0 320#13808D2093840565
(1779526305.774788) can0 6D4#2900001D00000000
(1779526305.776431) can0 324#0008000500070007
(1779526305.777305) can0 360#0000040300520000
(1779526305.777428) can0 361#041803F500000000
(1779526305.777550) can0 362#00000000001E0000
(1779526305.777673) can0 363#0000000000000CE4
(1779526305.777805) can0 368#095A000000000000
(1779526305.777866) can0 3EC#0000000000000000
(1779526305.778046) can0 3EE#0000000000000000
(1779526305.778161) can0 470#095A00000000FCFD
(1779526305.778290) can0 471#0015000004030000
(1779526305.778415) can0 6D1#29ED021900000000
(1779526305.778533) can0 6F6#0000000000000000
(1779526305.780549) can0 328#0000000000000000
(1779526305.781963) can0 6D4#250033B203AC0000
(1779526305.782289) can0 320#13858D2293810561
(1779526305.786386) can0 6D3#8201138400000000
(1779526305.786556) can0 324#0008000700090007
(1779526305.788982) can0 328#0000000000000000
(1779526305.790489) can0 3E5#0100000000000000
(1779526305.790613) can0 364#0D83000000000000
(1779526305.790739) can0 369#0000000000000000
(1779526305.790806) can0 36A#0000000000000000
(1779526305.790935) can0 36B#0065000000000000
(1779526305.791060) can0 371#0000000000000000
(1779526305.791185) can0 3EA#0000000000000000
(1779526305.791292) can0 3EB#00000000001E001E
(1779526305.791489) can0 3ED#0000000000000000
(1779526305.791557) can0 3EF#0000000000000000
(1779526305.791686) can0 469#0C7A000000000000
(1779526305.791812) can0 6D0#2603E800C8000000
(1779526305.792612) can0 6D6#01005F292DEA01AF
(1779526305.792632) can0 320#13818D2093790561
(1779526305.795984) can0 6D1#03EB027D7D000000
(1779526305.797522) can0 324#0009000700070007
(1779526305.798795) can0 6D0#40000003E8000000
(1779526305.799214) can0 328#0000000000000000
(1779526305.799356) can0 2B3#100112
(1779526305.799496) can0 2B1#09940000500000A3
(1779526305.802372) can0 360#0000040300520000
(1779526305.802526) can0 361#041803F500000000
(1779526305.802559) can0 362#00000000001E0000
(1779526305.802735) can0 36C#0000000000000000
(1779526305.802852) can0 36D#0000000000000000
(1779526305.802993) can0 36E#0000000000000000
(1779526305.803107) can0 372#00820000000003F5
(1779526305.803215) can0 3EC#0000000000000000
(1779526305.803351) can0 471#0016000004030000
(1779526305.803545) can0 472#0000000000000000
(1779526305.803568) can0 6D1#810207D003E80000
(1779526305.803725) can0 6F8#00000000000003E8
(1779526305.803845) can0 320#13808D1F9385056E
(1779526305.807912) can0 324#0007000700080004
(1779526305.809155) can0 328#0000000000000000
(1779526305.810849) can0 6D3#8300056B00000000
(1779526305.814174) can0 320#13888D1F93810569
(1779526305.814287) can0 6D4#260033C000000000
(1779526305.815499) can0 324#00070009000B0008
(1779526305.817301) can0 3E5#0100000000000000
(1779526305.817394) can0 364#0D83000000000000
(1779526305.817487) can0 36F#0000000000000000
(1779526305.817662) can0 370#0000FFFD00000000
(1779526305.817716) can0 373#0000000000000000
(1779526305.817917) can0 3E6#0000000000000000
(1779526305.818055) can0 3EA#0000000000000000
(1779526305.818126) can0 3EB#00000000001E001E
(1779526305.818236) can0 3ED#0000000000000000
(1779526305.818359) can0 474#0000000000000000
(1779526305.818486) can0 6D0#27000000C8000000
(1779526305.818683) can0 328#0000000000000000
(1779526305.820957) can0 6F5#0100000000000000
(1779526305.821075) can0 6D0#0203E803E8000000
(1779526305.822961) can0 320#13888D2093830561
(1779526305.825535) can0 324#00080004000B0007
(1779526305.828923) can0 360#0000040300510000
(1779526305.828967) can0 361#041403F500000000
(1779526305.829024) can0 362#00000000001E0000
(1779526305.829170) can0 374#0000000000000000
(1779526305.829299) can0 3E7#0000000400000000
(1779526305.829450) can0 3E8#0000000000000000
(1779526305.829579) can0 3E9#0000000003B70000
(1779526305.829629) can0 3EC#0000000000000000
(1779526305.829752) can0 471#0013000104030000
(1779526305.829876) can0 476#0000000000000000
(1779526305.830001) can0 6F4#0000000000000000
(1779526305.830201) can0 328#0000000000000000
(1779526305.832092) can0 6D1#20ED021900000000
(1779526305.833711) can0 6D4#250033C008270000
(1779526305.833853) can0 320#13808D239388055C
(1779526305.833968) can0 6D6#02000CDF006B13EA
(1779526305.835409) can0 6D3#6000000900000000
(1779526305.836782) can0 324#0007000700080007
(1779526305.838798) can0 3E5#0100000000000000
(1779526305.838916) can0 363#0000000000000CE4
(1779526305.839036) can0 364#0D83000000000000
(1779526305.839171) can0 368#095A000000000000
(1779526305.839288) can0 375#0000000000000000
(1779526305.839413) can0 3EA#0000000000000000
(1779526305.839537) can0 3EB#00000000001E001E
(1779526305.839660) can0 3ED#0000000000000000
(1779526305.839790) can0 3EE#0000000000000000
(1779526305.839928) can0 470#095A00000000FCFD
(1779526305.839979) can0 6D0#28000000C8000000
(1779526305.840550) can0 328#0000000000000000
(1779526305.843717) can0 320#13858D2293840564
(1779526305.846407) can0 324#0007000700070007
(1779526305.849184) can0 360#0000040300510000
(1779526305.849215) can0 361#041403F500000000
(1779526305.849331) can0 362#00000000001E0000
(1779526305.849537) can0 369#0000000000000000
(1779526305.849556) can0 36A#0000000000000000
(1779526305.849675) can0 36B#0065000000000000
(1779526305.849745) can0 2B3#100112
(1779526305.849850) can0 2B1#09940000500000A4
(1779526305.849976) can0 376#0000000000000000
(1779526305.850105) can0 3EC#0000000000000000
(1779526305.850235) can0 3EF#0000000000000000
(1779526305.850363) can0 471#0016000004030000
(1779526305.850806) can0 328#0000000000000000
(1779526305.854539) can0 320#13888D2393840561
(1779526305.856706) can0 324#0009000500080009
(1779526305.858863) can0 328#0000000000000000
(1779526305.859758) can0 3E5#0100000000000000
(1779526305.859880) can0 364#0D83000000000000
(1779526305.860005) can0 36C#0000000000000000
(1779526305.860130) can0 36D#0000000000000000
(1779526305.860255) can0 36E#0000000000000000
(1779526305.860380) can0 3EA#0000000000000000
(1779526305.860509) can0 3EB#00000000001E001E
(1779526305.860634) can0 3ED#0000000000000000
(1779526305.860811) can0 472#0000000000000000
(1779526305.860920) can0 473#0000000000000000
(1779526305.861053) can0 6D0#29000000C8000000
(1779526305.861116) can0 6D3#6100000700000000
(1779526305.864851) can0 320#13848D2493850561
(1779526305.864880) can0 6D4#260033A300000000
(1779526305.865972) can0 324#000B000900050007
(1779526305.868937) can0 328#0000000000000000
(1779526305.871366) can0 37F#04B2000000000000
(1779526305.872248) can0 360#0000040300510000
(1779526305.872317) can0 361#041603F500000000
(1779526305.872578) can0 362#00000000001E0000
(1779526305.872585) can0 36F#0000000000000000
(1779526305.872766) can0 370#0000FFFD00000000
(1779526305.872828) can0 3E6#0000000000000000
(1779526305.873021) can0 3EC#0000000000000000
(1779526305.873064) can0 471#0015000004030000
(1779526305.873269) can0 474#0000000000000000
(1779526305.873313) can0 477#FFFF000000000000
(1779526305.873506) can0 320#13888D1E93840567
(1779526305.873569) can0 6D0#03000003E8000000
(1779526305.875332) can0 324#0008000700080008
(1779526305.876273) can0 6D1#414B000028000000
(1779526305.877355) can0 6D6#03251F1E1F320007
(1779526305.878360) can0 328#0000000000000000
(1779526305.882322) can0 3E5#0100000000000000
(1779526305.882493) can0 364#0D83000000000000
(1779526305.882557) can0 3E7#0000000400000000
(1779526305.882685) can0 3E8#0000000000000000
(1779526305.882785) can0 3E9#0000000003B70000
(1779526305.882935) can0 3EA#0000000000000000
(1779526305.883035) can0 3EB#00000000001E001E
(1779526305.883169) can0 3ED#0000000000000000
(1779526305.883299) can0 320#13878D2393880561
(1779526305.883516) can0 476#0000000000000000
(1779526305.883547) can0 6D0#20000000C8000000
(1779526305.883684) can0 6F4#0000000000000000
(1779526305.883795) can0 6F7#000001C20D3B0000
(1779526305.885594) can0 6D3#6200000900000000
(1779526305.885707) can0 324#0008000500070008
(1779526305.886490) can0 6D1#21ED022300000000
(1779526305.888671) can0 328#0000000000000000
(1779526305.892951) can0 320#13808D2293810560
(1779526305.894377) can0 6D4#2700005800000000
(1779526305.897261) can0 324#0007000500080007
(1779526305.898425) can0 328#0000000000000000
(1779526305.899094) can0 360#0000040300510000
(1779526305.899153) can0 361#041B03F500000000
(1779526305.899326) can0 362#00000000001E0000
(1779526305.899438) can0 363#0000000000000CE4
(1779526305.899521) can0 368#095A000000000000
(1779526305.899645) can0 3E0#0DE30C9400000D79
(1779526305.899775) can0 3EC#0000000000000000
(1779526305.899893) can0 3EE#0000000000000000
(1779526305.900017) can0 470#095A00000000FCFD
(1779526305.900116) can0 471#0013000004030000
(1779526305.900241) can0 6D0#41000003E8000000
(1779526305.901773) can0 2B3#100112
(1779526305.901887) can0 2B1#09940000500000A4
(1779526305.903502) can0 320#13858D2293850567
(1779526305.904295) can0 6D0#2103E800C8000000
(1779526305.905138) can0 70C#05
(1779526305.905567) can0 6D4#250033FC031F0000
(1779526305.905593) can0 324#00080008000C0007
(1779526305.906411) can0 6D1#6101000009C4000C
(1779526305.910384) can0 328#0000000000000000
(1779526305.910403) can0 6D3#6300000700000000
(1779526305.910944) can0 3E5#0100000000000000
(1779526305.911055) can0 364#0D83000000000000
(1779526305.911179) can0 369#0000000000000000
(1779526305.911304) can0 36A#0000000000000000
(1779526305.911489) can0 36B#0065000000000000
(1779526305.911556) can0 371#0000000000000000
(1779526305.911681) can0 3E1#0BE5000000000000
(1779526305.911812) can0 3EA#0000000000000000
(1779526305.911918) can0 3EB#00000000001E001E
(1779526305.912049) can0 3ED#0000000000000000
(1779526305.912174) can0 3EF#0000000000000000
(1779526305.913187) can0 320#13888D2693870563
(1779526305.915888) can0 324#000B000800080007
(1779526305.918569) can0 6D6#0400336C038C0000
(1779526305.918609) can0 328#0000000000000000
(1779526305.922613) can0 320#13848D2393800561
(1779526305.924709) can0 360#0000040200510000
(1779526305.924777) can0 361#040D03F500000000
(1779526305.924944) can0 362#00000000001E0000
(1779526305.925083) can0 36C#0000000000000000
(1779526305.925153) can0 36D#0000000000000000
(1779526305.925325) can0 36E#0000000000000000
(1779526305.925392) can0 372#00820000000003F5
(1779526305.925546) can0 3E2#02EE0000FFFF0000
(1779526305.925713) can0 3EC#0000000000000000
(1779526305.925751) can0 471#0013000004020000
(1779526305.925866) can0 472#0000000000000000
(1779526305.925998) can0 324#0009000500000007
(1779526305.926122) can0 6D1#00ED027D7D0A0000
(1779526305.927255) can0 6D0#22000000C8000000
(1779526305.928650) can0 328#0000000000000000
(1779526305.931535) can0 6D0#00000003E8000000
(1779526305.932595) can0 320#13878D2293830561
(1779526305.933578) can0 6D1#820207D003E80000
(1779526305.936172) can0 6D3#8000138800000000
(1779526305.936308) can0 6D4#260033CF00000000
(1779526305.936490) can0 324#0008000800090007
(1779526305.936705) can0 3E5#0100000000000000
(1779526305.936834) can0 364#0D83000000000000
(1779526305.936965) can0 36F#0000000000000000
(1779526305.937071) can0 370#0000FFFD00000000
(1779526305.937199) can0 373#0000000000000000
(1779526305.937324) can0 3E3#0000000000000000
(1779526305.937491) can0 3E6#0000000000000000
(1779526305.937580) can0 3EA#0000000000000000
(1779526305.937706) can0 3EB#00000000001E001E
(1779526305.937839) can0 3ED#0000000000000000
(1779526305.938046) can0 474#0000000000000000
(1779526305.938067) can0 6D1#22ED022300000000
(1779526305.938867) can0 328#0000000000000000
(1779526305.942571) can0 320#13858D24937D0565
(1779526305.946289) can0 324#000B000500070008
(1779526305.949297) can0 328#0000000000000000
(1779526305.949958) can0 360#0000040300510000
(1779526305.950073) can0 361#041203F500000000
(1779526305.950185) can0 362#00000000001E0000
(1779526305.950301) can0 374#0000000000000000
(1779526305.950456) can0 3E4#0001000000000080
(1779526305.950576) can0 3E7#0000000400000000
(1779526305.950683) can0 3E8#0000000000000000
(1779526305.950803) can0 3E9#0000000003B70000
(1779526305.950928) can0 3EC#0000000000000000
(1779526305.951056) can0 471#0016000004030000
(1779526305.951179) can0 476#0000000000000000
(1779526305.951306) can0 6D0#23000000C8000000
(1779526305.951436) can0 6F4#0000000000000000
(1779526305.953002) can0 2B3#100112
(1779526305.953105) can0 2B1#09940000500000A4
(1779526305.953243) can0 320#13838D2493800561
(1779526305.955496) can0 6D4#250033D707E40000
(1779526305.956766) can0 324#0008000500080007
(1779526305.959263) can0 328#0000000000000000
(1779526305.959298) can0 6D3#81010D2300000000
(1779526305.960204) can0 6D6#05001980002636B1
(1779526305.961070) can0 3E5#0100000000000000
(1779526305.961306) can0 363#0000000000000CE4
(1779526305.961325) can0 364#0D83000000000000
(1779526305.961563) can0 368#095A000000000000
(1779526305.961587) can0 375#0000000000000000
(1779526305.961739) can0 3EA#0000000000000000
(1779526305.961868) can0 3EB#00000000001E001E
(1779526305.961991) can0 3ED#0000000000000000
(1779526305.962123) can0 3EE#0000000000000000
(1779526305.962244) can0 470#095A00000000FCFD
(1779526305.962366) can0 6F0#0000000000000000
(1779526305.963755) can0 320#13888D2093850561
(1779526305.965735) can0 324#0007000500090007
(1779526305.969559) can0 328#0000000000000000
(1779526305.972070) can0 360#0000040300510000
(1779526305.972129) can0 361#041203F500000000
(1779526305.972311) can0 362#00000000001E0000
(1779526305.972399) can0 369#0000000000000000
(1779526305.972546) can0 36A#0000000000000000
(1779526305.972681) can0 36B#0065000000000000
(1779526305.972764) can0 376#0000000000000000
(1779526305.972938) can0 3EC#0000000000000000
(1779526305.973075) can0 3EF#0000000000000000
(1779526305.973132) can0 320#13838D1E93880565
(1779526305.973256) can0 471#0011000004030000
(1779526305.973358) can0 6D0#24000000C8000000
(1779526305.973501) can0 6F1#0000000000000000
(1779526305.976276) can0 324#0008000400070005
(1779526305.979711) can0 328#0000000000000000
(1779526305.980810) can0 37F#04B1000000000000
(1779526305.983105) can0 320#13858D2493850561
(1779526305.983902) can0 3E5#0100000000000000
(1779526305.983952) can0 364#0D83000000000000
(1779526305.984077) can0 36C#0000000000000000
(1779526305.984201) can0 36D#0000000000000000
(1779526305.984326) can0 36E#0000000000000000
(1779526305.984509) can0 3EA#0000000000000000
(1779526305.984569) can0 3EB#00000000001E001E
(1779526305.984695) can0 3ED#0000000000000000
(1779526305.984820) can0 472#0000000000000000
(1779526305.984950) can0 473#0000000000000000
(1779526305.985075) can0 6D0#01000003E8000000
(1779526305.985201) can0 6F2#0000000000000000
(1779526305.986548) can0 324#0009000700070007
(1779526305.986573) can0 6D3#8201138500000000
(1779526305.986752) can0 6D4#260033A300000000
(1779526305.988990) can0 328#0000000000000000
(1779526305.991263) can0 6D1#23ED021900000000
(1779526305.992533) can0 320#13858D2293800563
(1779526305.994057) can0 360#0000040300510000
(1779526305.994162) can0 361#041903F500000000
(1779526305.994284) can0 362#00000000001E0000
(1779526305.994401) can0 36F#0000000000000000
(1779526305.994533) can0 370#0000FFFD00000000
(1779526305.994663) can0 3E6#0000000000000000
(1779526305.994787) can0 3EC#0000000000000000
(1779526305.994911) can0 471#0011000004030000
(1779526305.995036) can0 474#0000000000000000
(1779526305.995201) can0 477#FFFF000000000000
(1779526305.995344) can0 6D0#2503E800C8000000
(1779526305.995384) can0 6F3#0DA50DA500000000
(1779526305.997040) can0 324#000700050009000B
(1779526305.999724) can0 328#0000000000000000
(1779526306.002899) can0 6D5#1001090000000000
(1779526306.003007) can0 320#13838D1F93810563
(1779526306.004171) can0 2B3#100112
(1779526306.004265) can0 2B1#09940000500000A4
(1779526306.005869) can0 6D0#40000003E8000000
(1779526306.006513) can0 3E5#0100000000000000
(1779526306.006579) can0 364#0D83000000000000
(1779526306.006710) can0 3E7#0000000400000000
(1779526306.006841) can0 3E8#0000000000000000
(1779526306.006965) can0 3E9#0000000003B70000
(1779526306.007091) can0 3EA#0000000000000000
(1779526306.007215) can0 3EB#00000000001E001E
(1779526306.007341) can0 324#0007000400090007
(1779526306.007478) can0 3ED#0000000000000000
(1779526306.007579) can0 475#0000000000000000
(1779526306.007711) can0 476#0000000000000000
(1779526306.007842) can0 6F4#0000000000000000
(1779526306.007967) can0 6F7#000001C20D3B0000
(1779526306.008637) can0 328#0000000000000000
(1779526306.010782) can0 6D3#8300056500000000
(1779526306.012559) can0 320#13818D269385055E
(1779526306.014499) can0 6D4#250033DE03C90000
(1779526306.015736) can0 324#000B000800040005
(1779526306.016991) can0 360#0000040300510000
(1779526306.017021) can0 361#041403F500000000
(1779526306.017064) can0 362#00000000001E0000
(1779526306.017193) can0 363#0000000000000CE4
(1779526306.017317) can0 368#095A000000000000
(1779526306.017593) can0 3EC#0000000000000000
(1779526306.017600) can0 3EE#0000000000000000
(1779526306.017769) can0 470#095A00000000FCFD
(1779526306.017821) can0 471#0016000004030000
(1779526306.017928) can0 6D0#2603E800C8000000
(1779526306.018062) can0 6F6#0000000000000000
(1779526306.018973) can0 328#0000000000000000
(1779526306.023558) can0 320#13818D2093800563
(1779526306.026736) can0 324#000B000700070007
(1779526306.027955) can0 3E5#0100000000000000
(1779526306.027983) can0 364#0D83000000000000
(1779526306.028036) can0 369#0000000000000000
(1779526306.028165) can0 36A#0000000000000000
(1779526306.028275) can0 36B#0065000000000000
(1779526306.028536) can0 371#0000000000000000
(1779526306.028553) can0 3EA#0000000000000000
(1779526306.028719) can0 3EB#00000000001E001E
(1779526306.028853) can0 3ED#0000000000000000
(1779526306.028981) can0 3EF#0000000000000000
(1779526306.029106) can0 469#0C7B000000000000
(1779526306.029296) can0 328#0000000000000000
(1779526306.033350) can0 320#13878D2293870564
(1779526306.033634) can0 6D1#6201000009C4000C
(1779526306.035413) can0 6D3#6000001400000000
(1779526306.035975) can0 6D0#0203E803E8000000
(1779526306.037138) can0 324#00080005000B0008
(1779526306.038413) can0 60D#221710009600
(1779526306.039428) can0 328#0000000000000000
(1779526306.040354) can0 360#0000040300510000
(1779526306.040415) can0 361#041803F500000000
(1779526306.040418) can0 362#00000000001E0000
(1779526306.040595) can0 36C#0000000000000000
(1779526306.040731) can0 36D#0000000000000000
(1779526306.040797) can0 36E#0000000000000000
(1779526306.040995) can0 372#00820000000003F5
(1779526306.041043) can0 3EC#0000000000000000
(1779526306.041170) can0 471#0018000004030000
(1779526306.041288) can0 472#0000000000000000
(1779526306.041399) can0 6F8#00000000000003E8
(1779526306.041872) can0 6D0#27000000C8000000
(1779526306.043488) can0 320#13818D2293810568
(1779526306.043615) can0 6D4#260033C000000000
(1779526306.043740) can0 6D6#0001343234543343
(1779526306.045701) can0 324#000C0009000C0007
(1779526306.045859) can0 6D1#24ED021900000000
(1779526306.048962) can0 328#0000000000000000
(1779526306.049879) can0 60D#2200180200
(1779526306.051235) can0 6D1#01ED027D7D000000
(1779526306.053225) can0 320#13838D2493840561
(1779526306.055222) can0 70C#05
(1779526306.055471) can0 3E5#0100000000000000
(1779526306.055505) can0 2B3#100112
(1779526306.055591) can0 2B1#09940000500000A3
(1779526306.055721) can0 364#0D83000000000000
(1779526306.055951) can0 36F#0000000000000000
(1779526306.055971) can0 370#0000FFFD00000000
(1779526306.056092) can0 373#0000000000000000
(1779526306.056224) can0 3E6#0000000000000000
(1779526306.056354) can0 3EA#0000000000000000
(1779526306.056492) can0 3EB#00000000001E001E
(1779526306.056585) can0 3ED#0000000000000000
(1779526306.056727) can0 474#0000000000000000
(1779526306.057011) can0 324#0007000500090009
(1779526306.059546) can0 328#0000000000000000
(1779526306.059607) can0 6D3#6100000800000000
(1779526306.063254) can0 6D0#28000000C8000000
(1779526306.063884) can0 320#13838D2393880560
(1779526306.064211) can0 60D#220018030000
(1779526306.067632) can0 324#0007000400070009
(1779526306.068872) can0 328#0000000000000000
(1779526306.068957) can0 360#0000040200510000
(1779526306.068985) can0 361#041203F500000000
(1779526306.069103) can0 362#00000000001E0000
(1779526306.069226) can0 374#0000000000000000
(1779526306.069351) can0 3E7#0000000400000000
(1779526306.069521) can0 3E8#0000000000000000
(1779526306.069620) can0 3E9#0000000003B70000
(1779526306.069726) can0 3EC#0000000000000000
(1779526306.069851) can0 471#0013000004020000
(1779526306.069976) can0 476#0000000000000000
(1779526306.070101) can0 6D1#83000FA00BB80000
(1779526306.070226) can0 6F4#0000000000000000
(1779526306.073601) can0 320#13818D2693810565
(1779526306.073660) can0 6D4#250033E509050000
(1779526306.075960) can0 324#0007000700080009
(1779526306.076876) can0 60D#220018050000
(1779526306.078508) can0 328#0000000000000000
(1779526306.081093) can0 3E5#0100000000000000
(1779526306.081202) can0 363#0000000000000CE4
(1779526306.081313) can0 364#0D83000000000000
(1779526306.081493) can0 368#095A000000000000
(1779526306.081554) can0 375#0000000000000000
(1779526306.081697) can0 3EA#0000000000000000
(1779526306.081808) can0 3EB#00000000001E001E
(1779526306.081930) can0 3ED#0000000000000000
(1779526306.082053) can0 3EE#0000000000000000
(1779526306.082181) can0 470#095A00000000FCFD
(1779526306.082331) can0 320#13858D2293830563
(1779526306.084513) can0 6D3#6200000700000000
(1779526306.084895) can0 6D0#29000000C8000000
(1779526306.086526) can0 324#0007000500080009
(1779526306.086544) can0 6D6#01005F292DED01A9
(1779526306.086904) can0 37F#04B1000000000000
(1779526306.089173) can0 6D0#03000003E8000000
(1779526306.090253) can0 328#0000000000000000
(1779526306.092946) can0 320#13878D209385055E
(1779526306.095055) can0 360#0000040300510000
(1779526306.095171) can0 361#041603F500000000
(1779526306.095270) can0 362#00000000001E0000
(1779526306.095402) can0 369#0000000000000000
(1779526306.095521) can0 36A#0000000000000000
(1779526306.095651) can0 36B#0065000000000000
(1779526306.095777) can0 376#0000000000000000
(1779526306.095911) can0 3EC#0000000000000000
(1779526306.096081) can0 324#0007000900070009
(1779526306.096168) can0 3EF#0000000000000000
(1779526306.096268) can0 471#0011000004030000
(1779526306.097878) can0 6D1#254D022300000000
(1779526306.098864) can0 328#0000000000000000
(1779526306.103273) can0 320#13858D2493810561
(1779526306.104848) can0 6D4#260033B900000000
(1779526306.105571) can0 3E5#0100000000000000
(1779526306.105685) can0 364#0D83000000000000
(1779526306.105807) can0 36C#0000000000000000
(1779526306.105931) can0 36D#0000000000000000
(1779526306.106039) can0 36E#0000000000000000
(1779526306.106173) can0 3EA#0000000000000000
(1779526306.106305) can0 3EB#00000000001E001E
(1779526306.106507) can0 3ED#0000000000000000
(1779526306.106559) can0 472#0000000000000000
(1779526306.106635) can0 2B3#100112
(1779526306.106734) can0 2B1#09940000500000A3
(1779526306.106866) can0 473#0000000000000000
(1779526306.107075) can0 324#0009000700090008
(1779526306.109723) can0 6D0#20000000C8000000
(1779526306.110032) can0 328#0000000000000000
(1779526306.110115) can0 6D3#6300000800000000
(1779526306.113772) can0 320#13888D1C93830561
(1779526306.116086) can0 360#0000040300510000
(1779526306.116183) can0 361#041603F500000000
(1779526306.116201) can0 362#00000000001E0000
(1779526306.116328) can0 36F#0000000000000000
(1779526306.116518) can0 370#0000FFFD00000000
(1779526306.116561) can0 3E6#0000000000000000
(1779526306.116696) can0 3EC#0000000000000000
(1779526306.116826) can0 471#000F000004030000
(1779526306.116958) can0 474#0000000000000000
(1779526306.117088) can0 477#FFFF000000000000
(1779526306.117188) can0 6D0#41000003E8000000
(1779526306.117828) can0 324#000B000700080005
(1779526306.119666) can0 328#0000000000000000
(1779526306.123954) can0 320#13808D1F9385055E
(1779526306.125641) can0 324#0009000700070007
(1779526306.126720) can0 3E5#0100000000000000
(1779526306.126792) can0 364#0D83000000000000
(1779526306.126950) can0 3E7#0000000400000000
(1779526306.127075) can0 3E8#0000000000000000
(1779526306.127186) can0 3E9#0000000003B70000
(1779526306.127313) can0 3EA#0000000000000000
(1779526306.127447) can0 3EB#00000000001E001E
(1779526306.127580) can0 3ED#0000000000000000
(1779526306.127701) can0 476#0000000000000000
(1779526306.127836) can0 6F4#0000000000000000
(1779526306.127961) can0 6F7#000001C20D3B0000
(1779526306.129497) can0 6D6#02000CDF006B13EA
(1779526306.129535) can0 328#0000000000000000
(1779526306.130497) can0 6D0#2103E800C8000000
(1779526306.132802) can0 320#13818D2493850563
(1779526306.136268) can0 6D3#8000138100000000
(1779526306.136385) can0 6D4#2700006700000000
(1779526306.136541) can0 324#0007000500070007
(1779526306.137222) can0 6D1#404B000028000000
(1779526306.138686) can0 328#0000000000000000
(1779526306.140620) can0 360#0000040300510000
(1779526306.140650) can0 361#041603F500000000
(1779526306.140728) can0 362#00000000001E0000
(1779526306.140843) can0 363#0000000000000CE4
(1779526306.140972) can0 368#095A000000000000
(1779526306.141074) can0 3E0#0DE30C9400000D79
(1779526306.141217) can0 3EC#0000000000000000
(1779526306.141340) can0 3EE#0000000000000000
(1779526306.141528) can0 470#095A00000000FCFD
(1779526306.141571) can0 471#0016000004030000
(1779526306.141753) can0 6D0#00000003E8000000
(1779526306.142871) can0 320#13888D1E93840561
(1779526306.146245) can0 324#0008000500090004
(1779526306.148789) can0 328#0000000000000000
(1779526306.150399) can0 3E5#0100000000000000
(1779526306.150508) can0 364#0D83000000000000
(1779526306.150694) can0 369#0000000000000000
(1779526306.150788) can0 36A#0000000000000000
(1779526306.150903) can0 36B#0065000000000000
(1779526306.151012) can0 371#0000000000000000
(1779526306.151138) can0 3E1#0BE5000000000000
(1779526306.151272) can0 3EA#0000000000000000
(1779526306.151396) can0 3EB#00000000001E001E
(1779526306.151554) can0 3ED#0000000000000000
(1779526306.151680) can0 3EF#0000000000000000
(1779526306.151805) can0 6D1#26ED021900000000
(1779526306.152800) can0 320#13848D1F9388055D
(1779526306.153981) can0 6D0#22000000C8000000
(1779526306.155268) can0 324#0009000700070007
(1779526306.156587) can0 6D4#250033DE04EA0000
(1779526306.157761) can0 2B3#100112
(1779526306.157886) can0 2B1#09940000500000A4
(1779526306.158655) can0 328#0000000000000000
(1779526306.159935) can0 6D3#81010D2400000000
(1779526306.161033) can0 360#0000040300510000
(1779526306.161083) can0 361#041403F500000000
(1779526306.161210) can0 362#00000000001E0000
(1779526306.161334) can0 36C#0000000000000000
(1779526306.161494) can0 36D#0000000000000000
(1779526306.161583) can0 36E#0000000000000000
(1779526306.161686) can0 372#00820000000003F5
(1779526306.161817) can0 3E2#02EE0000FFFF0000
(1779526306.161950) can0 3EC#0000000000000000
(1779526306.162075) can0 471#0013000004030000
(1779526306.162220) can0 472#0000000000000000
(1779526306.162910) can0 320#13858D24937F0564
(1779526306.163305) can0 6D1#6301000009C4000C
(1779526306.166735) can0 324#000B000700080007
(1779526306.168724) can0 328#0000000000000000
(1779526306.170721) can0 6D6#03261F1E1F32000D
(1779526306.171801) can0 3E5#0100000000000000
(1779526306.171872) can0 364#0D83000000000000
(1779526306.171997) can0 36F#0000000000000000
(1779526306.172127) can0 370#0000FFFD00000000
(1779526306.172235) can0 373#0000000000000000
(1779526306.172351) can0 3E3#0000000000000000
(1779526306.172505) can0 3E6#0000000000000000
(1779526306.172615) can0 3EA#0000000000000000
(1779526306.172736) can0 3EB#00000000001E001E
(1779526306.172861) can0 3ED#0000000000000000
(1779526306.172967) can0 320#13888D1F9380056B
(1779526306.173092) can0 474#0000000000000000
(1779526306.175158) can0 6D0#23000000C8000000
(1779526306.176356) can0 324#00070005000B0007
(1779526306.177979) can0 6D1#02ED026E64000000
(1779526306.179055) can0 328#0000000000000000
(1779526306.181458) can0 360#0000040300510000
(1779526306.181517) can0 361#041B03F500000000
(1779526306.181627) can0 362#00000000001E0000
(1779526306.181752) can0 374#0000000000000000
(1779526306.181888) can0 3E4#0001000000000080
(1779526306.182044) can0 3E7#0000000400000000
(1779526306.182139) can0 3E8#0000000000000000
(1779526306.182262) can0 3E9#0000000003B70000
(1779526306.182359) can0 320#13858D2293880560
(1779526306.182554) can0 3EC#0000000000000000
(1779526306.182626) can0 471#0013000104030000
(1779526306.182753) can0 476#0000000000000000
(1779526306.182876) can0 6F4#0000000000000000
(1779526306.186890) can0 6D3#8201138100000000
(1779526306.186944) can0 324#0007000400090009
(1779526306.187051) can0 6D4#260033A300000000
(1779526306.188799) can0 328#0000000000000000
(1779526306.192139) can0 3E5#0100000000000000
(1779526306.192331) can0 363#0000000000000CE4
(1779526306.192337) can0 364#0D83000000000000
(1779526306.192509) can0 368#095A000000000000
(1779526306.192561) can0 375#0000000000000000
(1779526306.192695) can0 3EA#0000000000000000
(1779526306.192810) can0 3EB#00000000001E001E
(1779526306.192940) can0 3ED#0000000000000000
(1779526306.193067) can0 3EE#0000000000000000
(1779526306.193201) can0 470#095A00000000FCFD
(1779526306.193317) can0 6D0#01000003E8000000
(1779526306.193508) can0 320#13848D2493880560
(1779526306.193559) can0 6F0#0000000000000000
(1779526306.195632) can0 324#0009000700070008
(1779526306.196794) can0 37F#04B2000000000000
(1779526306.198499) can0 6D0#24000000C8000000
(1779526306.199512) can0 328#0000000000000000
(1779526306.203775) can0 320#13858D1C93880567
(1779526306.205083) can0 70C#05
(1779526306.205352) can0 360#0000040400510000
(1779526306.205503) can0 361#041903F500000000
(1779526306.205582) can0 362#00000000001E0000
(1779526306.205710) can0 369#0000000000000000
(1779526306.205844) can0 36A#0000000000000000
(1779526306.205944) can0 36B#0065000000000000
(1779526306.206070) can0 376#0000000000000000
(1779526306.206201) can0 3EC#0000000000000000
(1779526306.206326) can0 3EF#0000000000000000
(1779526306.206495) can0 324#0007000700070007
(1779526306.206587) can0 471#0017000004040000
(1779526306.206707) can0 6D1#27ED022800000000
(1779526306.206812) can0 6F1#0000000000000000
(1779526306.210082) can0 2B3#100112
(1779526306.210185) can0 2B1#09940000500000A4
(1779526306.210521) can0 328#0000000000000000
(1779526306.210636) can0 6D3#8300055D00000000
(1779526306.212196) can0 6D6#0400336E038C0000
(1779526306.213827) can0 320#13808D1F9388055C
(1779526306.215799) can0 3E5#0100000000000000
(1779526306.215911) can0 364#0D8E000000000000
(1779526306.216032) can0 36C#0000000000000000
(1779526306.216176) can0 36D#0000000000000000
(1779526306.216291) can0 36E#0000000000000000
(1779526306.216491) can0 3EA#0000000000000000
(1779526306.216532) can0 3EB#00000000001E001E
(1779526306.216659) can0 3ED#0000000000000000
(1779526306.216790) can0 472#0000000000000000
(1779526306.216919) can0 473#0000000000000000
(1779526306.217039) can0 6F2#0000000000000000
(1779526306.217911) can0 324#0009000700090007
(1779526306.218039) can0 6D4#2700005100000000
(1779526306.219032) can0 328#0000000000000000
(1779526306.219809) can0 6D0#2503E800C8000000
(1779526306.222645) can0 320#13878D2393830560
(1779526306.223621) can0 6D0#40000003E8000000
(1779526306.225751) can0 324#0008000B00070008
(1779526306.226324) can0 360#0000040400510000
(1779526306.226502) can0 361#041803F500000000
(1779526306.226558) can0 362#00000000001E0000
(1779526306.226690) can0 36F#0000000000000000
(1779526306.226817) can0 370#0000FFFD00000000
(1779526306.226922) can0 3E6#0000000000000000
(1779526306.227074) can0 3EC#0000000000000000
(1779526306.227173) can0 471#001C000004040000
(1779526306.227297) can0 474#0000000000000000
(1779526306.227502) can0 477#FFFF000000000000
(1779526306.227556) can0 6F3#0DA50DA500000000
(1779526306.228133) can0 328#0000000000000000
(1779526306.229597) can0 6D4#2500340309BF0000
(1779526306.232824) can0 320#13888D1F93830565
(1779526306.234867) can0 6D3#6000000900000000
(1779526306.235870) can0 324#0008000500070007
(1779526306.236539) can0 3E5#0100000000000000
(1779526306.236576) can0 364#0D8E000000000000
(1779526306.236668) can0 3E7#0000000400000000
(1779526306.236797) can0 3E8#0000000000000000
(1779526306.236920) can0 3E9#0000000003B60000
(1779526306.237051) can0 3EA#0000000000000000
(1779526306.237174) can0 3EB#00000000001E001E
(1779526306.237299) can0 3ED#0000000000000000
(1779526306.237478) can0 475#0000000000000000
(1779526306.237551) can0 476#0000000000000000
(1779526306.237684) can0 6F4#0000000000000000
(1779526306.237790) can0 6F7#000001C20D3B0000
(1779526306.239376) can0 328#0000000000000000
(1779526306.240676) can0 6D0#2603E800C8000000
(1779526306.241603) can0 60A#221710009600
(1779526306.244433) can0 320#13838D249385055E
(1779526306.246047) can0 324#000C000500080001
(1779526306.246547) can0 360#0000040400510000
(1779526306.246671) can0 361#041B03F500000000
(1779526306.246888) can0 362#00000000001E0000
(1779526306.246921) can0 363#0000000000000CE4
(1779526306.247064) can0 368#095A000000000000
(1779526306.247229) can0 3EC#0000000000000000
(1779526306.247316) can0 3EE#0000000000000000
(1779526306.247483) can0 470#095A00000000FCFD
(1779526306.247610) can0 471#0014000004040000
(1779526306.247674) can0 6D0#0203E803E8000000
(1779526306.247815) can0 6F6#0000000000000000
(1779526306.249495) can0 328#0000000000000000
(1779526306.252511) can0 320#13838D239385055E
(1779526306.254749) can0 6D6#05001980002636B1
(1779526306.255824) can0 60A#2200180200
(1779526306.256221) can0 324#0008000800090007
(1779526306.256975) can0 3E5#0100000000000000
(1779526306.257083) can0 364#0D85000000000000
(1779526306.257214) can0 369#0000000000000000
(1779526306.257340) can0 36A#0000000000000000
(1779526306.257489) can0 36B#0065000000000000
(1779526306.257581) can0 371#0000000000000000
(1779526306.257706) can0 3EA#0000000000000000
(1779526306.257830) can0 3EB#00000000001E001E
(1779526306.257955) can0 3ED#0000000000000000
(1779526306.258080) can0 3EF#0000000000000000
(1779526306.258205) can0 469#0C7C000000000000
(1779526306.258336) can0 6D1#28ED021900000000
(1779526306.259737) can0 328#0000000000000000
(1779526306.259857) can0 6D3#6100000500000000
(1779526306.260137) can0 2B3#100112
(1779526306.260261) can0 2B1#09940000500000A4
(1779526306.261844) can0 6D4#260033D700000000
(1779526306.263510) can0 320#13888D1E9384056B
(1779526306.264486) can0 6D0#27000000C8000000
(1779526306.266418) can0 324#0008000700070007
(1779526306.268966) can0 60A#220018030000
(1779526306.269901) can0 328#0000000000000000
(1779526306.270683) can0 360#0000040300510000
(1779526306.270797) can0 361#041B03F500000000
(1779526306.270969) can0 362#00000000001E0000
(1779526306.271092) can0 36C#0000000000000000
(1779526306.271231) can0 36D#0000000000000000
(1779526306.271362) can0 36E#0000000000000000
(1779526306.271557) can0 372#00820000000003F5
(1779526306.271565) can0 3EC#0000000000000000
(1779526306.271676) can0 471#0018000004030000
(1779526306.271798) can0 472#0000000000000000
(1779526306.271949) can0 6F8#00000000000003E8
(1779526306.274256) can0 320#13808D2393850564
(1779526306.275883) can0 324#0007000500090007
(1779526306.280464) can0 328#0000000000000000
(1779526306.281284) can0 3E5#0100000000000000
(1779526306.281408) can0 364#0D83000000000000
(1779526306.281542) can0 36F#0000000000000000
(1779526306.281596) can0 370#0000FFFD00000000
(1779526306.281766) can0 373#0000000000000000
(1779526306.281902) can0 3E6#0000000000000000
(1779526306.282025) can0 3EA#0000000000000000
(1779526306.282153) can0 3EB#00000000001E001E
(1779526306.282274) can0 3ED#0000000000000000
(1779526306.282402) can0 474#0000000000000000
(1779526306.282622) can0 60A#220018050000
(1779526306.283728) can0 320#13848D2393840561
(1779526306.285900) can0 6D3#6200000700000000
(1779526306.285961) can0 324#000B000700090005
(1779526306.289512) can0 328#0000000000000000
(1779526306.290500) can0 6D0#28000000C8000000
(1779526306.292652) can0 6D4#2700007D00000000
(1779526306.292771) can0 320#13888D1E93830563
(1779526306.293322) can0 360#0000040300510000
(1779526306.293503) can0 361#041B03F500000000
(1779526306.293560) can0 362#00000000001E0000
(1779526306.293687) can0 374#0000000000000000
(1779526306.293824) can0 3E7#0000000400000000
(1779526306.293924) can0 3E8#0000000000000000
(1779526306.294053) can0 3E9#0000000003B70000
(1779526306.294173) can0 3EC#0000000000000000
(1779526306.294297) can0 471#0018000004030000
(1779526306.294485) can0 476#0000000000000000
(1779526306.294561) can0 6D1#6001000009C4000C
(1779526306.294684) can0 6F4#0000000000000000
(1779526306.296310) can0 324#0008000700080008
(1779526306.296492) can0 6D5#1001090000000000
(1779526306.297598) can0 6D0#03000003E8000000
(1779526306.298563) can0 328#0000000000000000
(1779526306.303954) can0 320#137C8D2393840563
(1779526306.305532) can0 3E5#0100000000000000
(1779526306.305577) can0 363#0000000000000CE4
(1779526306.305728) can0 364#0D83000000000000
(1779526306.305750) can0 368#095A000000000000
(1779526306.305867) can0 375#0000000000000000
(1779526306.305996) can0 3EA#0000000000000000
(1779526306.306116) can0 3EB#00000000001E001E
(1779526306.306216) can0 324#0007000500080009
(1779526306.306341) can0 3ED#0000000000000000
(1779526306.306505) can0 3EE#0000000000000000
(1779526306.306612) can0 470#095A00000000FCFD
(1779526306.306712) can0 6D1#03EB027D7D000000
(1779526306.306946) can0 37F#04B3000000000000
(1779526306.308943) can0 6D1#29ED021900000000
(1779526306.309409) can0 328#0000000000000000
(1779526306.309511) can0 6D3#6300000700000000
(1779526306.311410) can0 2B3#100112
(1779526306.311495) can0 2B1#09940000500000A4
(1779526306.312663) can0 6D0#29000000C8000000
(1779526306.313129) can0 320#13838D2693830563
(1779526306.313243) can0 6D4#250033D704C50000
(1779526306.317118) can0 324#0009000500070007
(1779526306.318637) can0 360#0000040300510000
(1779526306.318683) can0 361#041603F500000000
(1779526306.318721) can0 362#00000000001E0000
(1779526306.318817) can0 369#0000000000000000
(1779526306.318932) can0 36A#0000000000000000
(1779526306.319052) can0 36B#0065000000000000
(1779526306.319177) can0 376#0000000000000000
(1779526306.319314) can0 3EC#0000000000000000
(1779526306.319514) can0 3EF#0000000000000000
(1779526306.319561) can0 328#0000000000000000
(1779526306.319703) can0 471#0018000004030000
(1779526306.322229) can0 6D1#810207D003E80000
(1779526306.323559) can0 320#13888D1F93850560
(1779526306.326820) can0 6F5#0100000000000000
(1779526306.327122) can0 6D0#41000003E8000000
(1779526306.327254) can0 324#0009000700090007
(1779526306.328647) can0 3E5#0100000000000000
(1779526306.328770) can0 364#0D83000000000000
(1779526306.328900) can0 36C#0000000000000000
(1779526306.329028) can0 36D#0000000000000000
(1779526306.329151) can0 36E#0000000000000000
(1779526306.329274) can0 3EA#0000000000000000
(1779526306.329391) can0 3EB#00000000001E001E
(1779526306.329536) can0 328#0000000000000000
(1779526306.329651) can0 3ED#0000000000000000
(1779526306.329721) can0 472#0000000000000000
(1779526306.329847) can0 473#0000000000000000
(1779526306.333112) can0 320#13848D2293840564
(1779526306.334572) can0 6D0#20000000C8000000
(1779526306.335228) can0 6D3#8000138500000000
(1779526306.335345) can0 324#0009000700070008
(1779526306.337827) can0 6D6#0001343034503340
(1779526306.338974) can0 360#0000040300510000
(1779526306.339087) can0 361#041D03F500000000
(1779526306.339208) can0 362#00000000001E0000
(1779526306.339338) can0 36F#0000000000000000
(1779526306.339498) can0 370#0000FFFD00000000
(1779526306.339584) can0 3E6#0000000000000000
(1779526306.339717) can0 328#0000000000000000
(1779526306.339877) can0 3EC#0000000000000000
(1779526306.339947) can0 471#0014000004030000
(1779526306.340077) can0 474#0000000000000000
(1779526306.340221) can0 477#FFFF000000000000
(1779526306.343302) can0 320#13878D2493800563
(1779526306.343505) can0 6D4#260033B200000000
(1779526306.347650) can0 324#0009000700080007
(1779526306.347858) can0 6D0#00000003E8000000
(1779526306.349299) can0 328#0000000000000000
(1779526306.349910) can0 100#000000EF6F000000
(1779526306.350033) can0 100#01FFFFEF00000000
(1779526306.350158) can0 100#0400000000000000
(1779526306.350289) can0 100#0200000000000000
(1779526306.350493) can0 100#0300000000000000
(1779526306.353191) can0 3E5#0100000000000000
(1779526306.353226) can0 364#0D83000000000000
(1779526306.353329) can0 3E7#0000000400000000
(1779526306.353504) can0 3E8#0000000000000000
(1779526306.353556) can0 3E9#0000000003B70000
(1779526306.353715) can0 3EA#0000000000000000
(1779526306.353839) can0 3EB#00000000001E001E
(1779526306.353971) can0 3ED#0000000000000000
(1779526306.354097) can0 320#13888D1E9383055A
(1779526306.354210) can0 476#0000000000000000
(1779526306.354337) can0 6F4#0000000000000000
(1779526306.354531) can0 6F7#000001C20D3B0000
(1779526306.355161) can0 70C#05
(1779526306.355540) can0 6D0#2103E800C8000000
(1779526306.356578) can0 324#0008000700070004
(1779526306.358848) can0 328#0000000000000000
(1779526306.359805) can0 6D3#81010D2000000000
(1779526306.362596) can0 6D1#20ED021900000000
(1779526306.362622) can0 2B3#100112
(1779526306.362699) can0 2B1#09940000500000A4
(1779526306.364547) can0 320#13858D2293850565
(1779526306.365585) can0 324#0007000700080009
(1779526306.365868) can0 360#0000040300510000
(1779526306.365916) can0 361#041903F500000000
(1779526306.366043) can0 362#00000000001E0000
(1779526306.366167) can0 363#0000000000000CE4
(1779526306.366291) can0 368#095A000000000000
(1779526306.366505) can0 3E0#0DE30C9400000D79
(1779526306.366538) can0 3EC#0000000000000000
(1779526306.366778) can0 3EE#0000000000000000
(1779526306.366798) can0 470#095A00000000FCFD
(1779526306.366916) can0 471#0017000004030000
(1779526306.369383) can0 328#0000000000000000
(1779526306.372529) can0 320#13868D249382055E
(1779526306.374752) can0 6D4#2700005800000000
(1779526306.376004) can0 3E5#0100000000000000
(1779526306.376046) can0 364#0D83000000000000
(1779526306.376102) can0 369#0000000000000000
(1779526306.376198) can0 36A#0000000000000000
(1779526306.376319) can0 36B#0065000000000000
(1779526306.376515) can0 324#0007000900070005
(1779526306.376561) can0 371#0000000000000000
(1779526306.376692) can0 3E1#0BE5000000000000
(1779526306.376822) can0 3EA#0000000000000000
(1779526306.376952) can0 3EB#00000000001E001E
(1779526306.377089) can0 3ED#0000000000000000
(1779526306.377210) can0 3EF#0000000000000000
(1779526306.378507) can0 6D0#22000000C8000000
(1779526306.380185) can0 328#0000000000000000
(1779526306.380242) can0 6D6#01005F292DE901AD
(1779526306.381200) can0 6D4#250033C008D90000
(1779526306.383883) can0 320#13888D1F93840561
(1779526306.385910) can0 6D3#8201138500000000
(1779526306.385974) can0 324#0008000500050007
(1779526306.389339) can0 360#0000040300510000
(1779526306.389388) can0 361#041603F500000000
(1779526306.389517) can0 362#00000000001E0000
(1779526306.389638) can0 36C#0000000000000000
(1779526306.389763) can0 36D#0000000000000000
(1779526306.389887) can0 36E#0000000000000000
(1779526306.390012) can0 372#00820000000003F5
(1779526306.390138) can0 3E2#02EE0000FFFF0000
(1779526306.390263) can0 3EC#0000000000000000
(1779526306.390390) can0 328#0000000000000000
(1779526306.390512) can0 471#0017000004030000
(1779526306.390636) can0 472#0000000000000000
(1779526306.390741) can0 6D1#414B000028000000
(1779526306.393030) can0 320#13838D2293840565
(1779526306.396028) can0 324#0009000B00070005
(1779526306.398774) can0 328#0000000000000000
(1779526306.399850) can0 6D0#23000000C8000000
(1779526306.400623) can0 3E5#0100000000000000
(1779526306.400756) can0 364#0D83000000000000
(1779526306.400862) can0 36F#0000000000000000
(1779526306.400993) can0 370#0000FFFD00000000
(1779526306.401091) can0 373#0000000000000000
(1779526306.401243) can0 3E3#0000000000000000
(1779526306.401351) can0 3E6#0000000000000000
(1779526306.401495) can0 3EA#0000000000000000
(1779526306.401610) can0 3EB#00000000001E001E
(1779526306.401737) can0 3ED#0000000000000000
(1779526306.401868) can0 474#0000000000000000
(1779526306.402318) can0 320#13848D2293810567
(1779526306.403656) can0 6D0#01000003E8000000
(1779526306.405843) can0 324#0009000900080007
(1779526306.408962) can0 328#0000000000000000
(1779526306.410534) can0 6D3#8300055D00000000
(1779526306.411286) can0 360#0000040300510000
(1779526306.411318) can0 361#041803F500000000
(1779526306.411368) can0 362#00000000001E0000
(1779526306.411563) can0 374#0000000000000000
(1779526306.411653) can0 3E4#0001000000000080
(1779526306.411813) can0 3E7#0000000400000000
(1779526306.411953) can0 3E8#0000000000000000
(1779526306.412013) can0 3E9#0000000003B70000
(1779526306.412117) can0 3EC#0000000000000000
(1779526306.412242) can0 471#0014000004030000
(1779526306.412377) can0 476#0000000000000000
(1779526306.412521) can0 6F4#0000000000000000
(1779526306.412743) can0 6D4#260033AA00000000
(1779526306.412849) can0 320#13858D2293870560
(1779526306.413736) can0 2B3#100112
(1779526306.413860) can0 2B1#09940000500000A4
(1779526306.413985) can0 37F#04B2000000000000
(1779526306.416647) can0 324#000B000800070009
(1779526306.418329) can0 328#0000000000000000
(1779526306.418998) can0 6D1#21ED022300000000
(1779526306.420972) can0 3E5#0100000000000000
(1779526306.421002) can0 363#0000000000000CE4
(1779526306.421146) can0 364#0D83000000000000
(1779526306.421269) can0 368#095A000000000000
(1779526306.421410) can0 375#0000000000000000
(1779526306.421546) can0 3EA#0000000000000000
(1779526306.421580) can0 3EB#00000000001E001E
(1779526306.421761) can0 3ED#0000000000000000
(1779526306.421893) can0 3EE#0000000000000000
(1779526306.422016) can0 470#095A00000000FCFD
(1779526306.422148) can0 6D0#24000000C8000000
(1779526306.422260) can0 6F0#0000000000000000
(1779526306.423523) can0 320#137F8D2393810561
(1779526306.423635) can0 6D6#02000CDF006B13EA
(1779526306.425537) can0 6D1#6101000009C4000C
(1779526306.427080) can0 324#0008000700070008
(1779526306.428310) can0 6D0#40000003E8000000
(1779526306.429438) can0 328#0000000000000000
(1779526306.431229) can0 360#0000040300510000
(1779526306.431289) can0 361#041803F500000000
(1779526306.431528) can0 362#00000000001E0000
(1779526306.431548) can0 369#0000000000000000
(1779526306.431716) can0 36A#0000000000000000
(1779526306.431861) can0 36B#0065000000000000
(1779526306.431925) can0 376#0000000000000000
(1779526306.432094) can0 3EC#0000000000000000
(1779526306.432217) can0 3EF#0000000000000000
(1779526306.432341) can0 471#0015000104030000
(1779526306.432555) can0 6D1#00ED027D7D0A0000
(1779526306.432565) can0 6F1#0000000000000000
(1779526306.433253) can0 320#13848D2393840567
(1779526306.435411) can0 6D3#6000000800000000
(1779526306.437539) can0 324#0007000800090005
(1779526306.439602) can0 328#0000000000000000
(1779526306.442338) can0 3E5#0100000000000000
(1779526306.442526) can0 364#0D83000000000000
(1779526306.442590) can0 36C#0000000000000000
(1779526306.442723) can0 36D#0000000000000000
(1779526306.442841) can0 36E#0000000000000000
(1779526306.442950) can0 3EA#0000000000000000
(1779526306.443064) can0 3EB#00000000001E001E
(1779526306.443189) can0 3ED#0000000000000000
(1779526306.443318) can0 472#0000000000000000
(1779526306.443504) can0 473#0000000000000000
(1779526306.443630) can0 320#13888D2293870560
(1779526306.443692) can0 6D0#2503E800C8000000
(1779526306.443838) can0 60B#221710009600
(1779526306.443961) can0 6F2#0000000000000000
(1779526306.444725) can0 6D4#2700006700000000
(1779526306.446268) can0 324#0009000400070008
(1779526306.448506) can0 6D1#820207D003E80000
(1779526306.449948) can0 328#0000000000000000
(1779526306.454032) can0 320#13838D1F93880561
(1779526306.454060) can0 360#0000040300510000
(1779526306.454214) can0 361#041203F500000000
(1779526306.454345) can0 362#00000000001E0000
(1779526306.454541) can0 36F#0000000000000000
(1779526306.454563) can0 370#0000FFFD00000000
(1779526306.454719) can0 3E6#0000000000000000
(1779526306.454850) can0 3EC#0000000000000000
(1779526306.454972) can0 471#0015000004030000
(1779526306.455097) can0 474#0000000000000000
(1779526306.455227) can0 477#FFFF000000000000
(1779526306.455329) can0 6D0#0203E803E8000000
(1779526306.455512) can0 6F3#0DA50DA500000000
(1779526306.455809) can0 60B#2200180200
(1779526306.456596) can0 324#0008000700080007
(1779526306.459929) can0 328#0000000000000000
(1779526306.460011) can0 6D3#6100000500000000
(1779526306.462197) can0 6D4#250033ED04DB0000
(1779526306.464352) can0 320#13878D229383056B
(1779526306.464497) can0 6D6#03251E1E1F320006
(1779526306.464833) can0 3E5#0100000000000000
(1779526306.464957) can0 364#0D83000000000000
(1779526306.465032) can0 2B3#100112
(1779526306.465163) can0 2B1#09940000500000A4
(1779526306.465273) can0 3E7#0000000400000000
(1779526306.465502) can0 3E8#0000000000000000
(1779526306.465562) can0 3E9#0000000003B70000
(1779526306.465666) can0 3EA#0000000000000000
(1779526306.465793) can0 3EB#00000000001E001E
(1779526306.465915) can0 3ED#0000000000000000
(1779526306.466051) can0 475#0000000000000000
(1779526306.466167) can0 476#0000000000000000
(1779526306.466288) can0 6D0#2603E800C8000000
(1779526306.466409) can0 324#0007000700080005
(1779526306.466573) can0 6F4#0000000000000000
(1779526306.466698) can0 6F7#000001C20D3B0000
(1779526306.469245) can0 60B#220018030000
(1779526306.470232) can0 328#0000000000000000
(1779526306.470961) can0 6D1#22ED022300000000
(1779526306.472986) can0 320#13808D2693840560
(1779526306.476164) can0 360#0000040300510000
(1779526306.476206) can0 361#041103F500000000
(1779526306.476314) can0 362#00000000001E0000
(1779526306.476546) can0 363#0000000000000CE4
(1779526306.476566) can0 324#0007000500070009
(1779526306.476714) can0 368#095A000000000000
(1779526306.476808) can0 3EC#0000000000000000
(1779526306.476921) can0 3EE#0000000000000000
(1779526306.477091) can0 470#095A00000000FCFD
(1779526306.477206) can0 471#000F000004030000
(1779526306.477334) can0 6F6#0000000000000000
(1779526306.478681) can0 328#0000000000000000
(1779526306.482765) can0 320#13848D279380055E
(1779526306.482841) can0 60B#220018050000
(1779526306.485947) can0 6D3#6200000700000000
(1779526306.486003) can0 324#0008000800090007
(1779526306.486839) can0 6D0#27000000C8000000
(1779526306.488470) can0 328#0000000000000000
(1779526306.490803) can0 6D4#260033B200000000
(1779526306.491510) can0 3E5#0100000000000000
(1779526306.491569) can0 364#0D83000000000000
(1779526306.491689) can0 369#0000000000000000
(1779526306.491814) can0 36A#0000000000000000
(1779526306.491948) can0 36B#0065000000000000
(1779526306.492079) can0 371#0000000000000000
(1779526306.492209) can0 3EA#0000000000000000
(1779526306.492335) can0 3EB#00000000001E001E
(1779526306.492506) can0 3ED#0000000000000000
(1779526306.492574) can0 3EF#0000000000000000
(1779526306.492693) can0 320#13878D1F93830567
(1779526306.492821) can0 469#0C7B000000000000
(1779526306.496547) can0 324#0009000500140007
(1779526306.499178) can0 328#0000000000000000
(1779526306.502008) can0 360#0000040300510000
(1779526306.502121) can0 361#041603F500000000
(1779526306.502225) can0 362#00000000001E0000
(1779526306.502349) can0 36C#0000000000000000
(1779526306.502529) can0 36D#0000000000000000
(1779526306.502566) can0 36E#0000000000000000
(1779526306.502721) can0 372#00820000000003F5
(1779526306.502840) can0 320#13848D1F93870565
(1779526306.502971) can0 3EC#0000000000000000
(1779526306.503097) can0 471#0016000004030000
(1779526306.503222) can0 472#0000000000000000
(1779526306.503347) can0 6F8#00000000000003E8
(1779526306.505115) can0 70C#05
(1779526306.507580) can0 324#000900090007000C
(1779526306.507597) can0 6D6#0400336E038D0000
(1779526306.508752) can0 6D0#28000000C8000000
(1779526306.510135) can0 328#0000000000000000
(1779526306.510170) can0 6D3#6300000700000000
(1779526306.513792) can0 320#13818D2793830567
(1779526306.515747) can0 3E5#0100000000000000
(1779526306.515778) can0 364#0D83000000000000
(1779526306.515843) can0 36F#0000000000000000
(1779526306.515989) can0 370#0000FFFD00000000
(1779526306.516066) can0 373#0000000000000000
(1779526306.516181) can0 3E6#0000000000000000
(1779526306.516256) can0 2B3#100112
(1779526306.516380) can0 2B1#09940000500000A4
(1779526306.516514) can0 3EA#0000000000000000
(1779526306.516636) can0 3EB#00000000001E001E
(1779526306.516813) can0 3ED#0000000000000000
(1779526306.516952) can0 474#0000000000000000
(1779526306.517021) can0 6D0#03000003E8000000
(1779526306.517696) can0 324#0009000800070007
(1779526306.518759) can0 328#0000000000000000
(1779526306.521385) can0 37F#04B2000000000000
(1779526306.522761) can0 6D4#2700006E00000000
(1779526306.522812) can0 320#13838D2093850561
(1779526306.523786) can0 6D1#23ED021900000000
(1779526306.526151) can0 324#0008000500090007
(1779526306.526905) can0 360#0000040300510000
(1779526306.527012) can0 361#041603F500000000
(1779526306.527111) can0 362#00000000001E0000
(1779526306.527237) can0 374#0000000000000000
(1779526306.527358) can0 3E7#0000000400000000
(1779526306.527512) can0 3E8#0000000000000000
(1779526306.527610) can0 3E9#0000000003B70000
(1779526306.527759) can0 3EC#0000000000000000
(1779526306.527859) can0 471#0011000004030000
(1779526306.527986) can0 476#0000000000000000
(1779526306.528112) can0 6F4#0000000000000000
(1779526306.528548) can0 328#0000000000000000
(1779526306.530102) can0 6D0#29000000C8000000
(1779526306.533036) can0 320#13848D2293870567
(1779526306.533816) can0 6D0#41000003E8000000
(1779526306.536572) can0 6D3#8000138000000000
(1779526306.536611) can0 324#0008000700070009
(1779526306.540324) can0 328#0000000000000000
(1779526306.542003) can0 3E5#0100000000000000
(1779526306.542106) can0 363#0000000000000CE4
(1779526306.542230) can0 364#0D83000000000000
(1779526306.542365) can0 368#095A000000000000
(1779526306.542508) can0 375#0000000000000000
(1779526306.542628) can0 3EA#0000000000000000
(1779526306.542732) can0 3EB#00000000001E001E
(1779526306.542854) can0 3ED#0000000000000000
(1779526306.542979) can0 3EE#0000000000000000
(1779526306.543100) can0 470#095A00000000FCFD
(1779526306.544070) can0 320#13808D2793830561
(1779526306.546925) can0 324#00090005000F0007
(1779526306.547879) can0 6D6#05001980002636B1
(1779526306.549720) can0 328#0000000000000000
