(1784298299.087385) can0 306#6485B5FF13550000
(1784298299.087490) can0 290#0000010000000010
(1784298299.087616) can0 289#FAFF0200D5030010
(1784298299.097433) can0 290#0000020000000020
(1784298299.097622) can0 289#F9FF0200D5030020
(1784298299.107550) can0 306#6485B5FF13550000
(1784298299.107653) can0 290#00000200FEFF0010
(1784298299.107814) can0 289#F9FF0200D4030010
(1784298299.117564) can0 290#00000200FFFF0020
(1784298299.117598) can0 289#F9FF0300D4030020
(1784298299.127506) can0 306#6485B5FF13550000
(1784298299.127544) can0 290#00000100FFFF0010
(1784298299.127627) can0 289#F9FF0100D4030010
(1784298299.137458) can0 290#00000000FFFF0020
(1784298299.137628) can0 289#F9FF0100D4030020
(1784298299.147549) can0 306#6485B5FF13550000
(1784298299.147636) can0 290#FFFF0100FFFF0010
(1784298299.147750) can0 289#F9FF0200D4030010
(1784298299.157558) can0 290#00000100FEFF0020
(1784298299.157589) can0 289#FAFF0300D4030020
(1784298299.167557) can0 306#6485B5FF13550000
(1784298299.167589) can0 290#00000100FEFF0010
(1784298299.167663) can0 289#F9FF0300D4030010
(1784298299.177546) can0 290#00000100FEFF0020
(1784298299.177631) can0 289#FAFF0200D5030020
(1784298299.187552) can0 306#6485B5FF13550000
(1784298299.187654) can0 290#00000200FFFF0010
(1784298299.187798) can0 289#F9FF0200D5030010
(1784298299.197558) can0 290#00000200FEFF0020
(1784298299.197590) can0 289#FAFF0200D5030020
(1784298299.207565) can0 306#6485B5FF13550000
(1784298299.207597) can0 290#0000020000000010
(1784298299.207672) can0 289#FAFF0200D4030010
(1784298299.217548) can0 290#0000000000000020
(1784298299.217634) can0 289#F9FF0200D4030020
(1784298299.227553) can0 306#6485B5FF13550000
(1784298299.227655) can0 290#01000200FFFF0010
(1784298299.227797) can0 289#FAFF0100D5030010
(1784298299.237502) can0 290#00000200FEFF0020
(1784298299.237543) can0 289#F9FF0200D4030020
(1784298299.247566) can0 306#6485B5FF13550000
(1784298299.247598) can0 290#00000100FFFF0010
(1784298299.247632) can0 289#FAFF0200D4030010
(1784298299.257547) can0 290#00000100FEFF0020
(1784298299.257640) can0 289#F9FF0300D4030020
(1784298299.267554) can0 306#6485B5FF13550000
(1784298299.267656) can0 290#00000200FFFF0010
(1784298299.267824) can0 289#F8FF0200D4030010
(1784298299.277559) can0 290#00000200FEFF0020
(1784298299.277591) can0 289#F9FF0100D4030020
(1784298299.287570) can0 306#6485B5FF13550000
(1784298299.287620) can0 290#00000100FEFF0010
(1784298299.287638) can0 289#FAFF0300D4030010
(1784298299.297552) can0 290#00000200FFFF0020
(1784298299.297636) can0 289#F9FF0100D5030020
(1784298299.307557) can0 306#6485B5FF13550000
(1784298299.307659) can0 290#01000000FFFF0010
(1784298299.307799) can0 289#F9FF0300D5030010
(1784298299.317557) can0 290#00000200FFFF0020
(1784298299.317589) can0 289#FAFF0200D5030020
(1784298299.327561) can0 306#6485B5FF13550000
(1784298299.327592) can0 290#0000020000000010
(1784298299.327662) can0 289#F8FF0200D6030010
(1784298299.337529) can0 290#00000100FEFF0020
(1784298299.337619) can0 289#FAFF0200D5030020
(1784298299.347534) can0 306#6485B5FF13550000
(1784298299.347637) can0 290#00000100FFFF0010
(1784298299.347807) can0 289#F9FF0300D5030010
(1784298299.357532) can0 290#00000300FFFF0020
(1784298299.357562) can0 289#FAFF0200D4030020
(1784298299.367552) can0 306#6485B5FF13550000
(1784298299.367585) can0 290#01000200FFFF0010
(1784298299.367610) can0 289#FAFF0300D4030010
(1784298299.377531) can0 290#0000020000000020
(1784298299.377640) can0 289#F9FF0300D6030020
(1784298299.387536) can0 306#6485B5FF13550000
(1784298299.387699) can0 290#01000100FFFF0010
(1784298299.387762) can0 289#F9FF0100D4030010
(1784298299.397557) can0 290#0000020000000020
(1784298299.397587) can0 289#F9FF0200D4030020
(1784298299.407565) can0 306#6485B5FF13550000
(1784298299.407604) can0 290#00000200FEFF0010
(1784298299.407621) can0 289#F9FF0300D5030010
(1784298299.417542) can0 290#00000200FFFF0020
(1784298299.417626) can0 289#F9FF0200D4030020
(1784298299.427544) can0 306#6485B5FF13550000
(1784298299.427642) can0 290#00000100FFFF0010
(1784298299.427806) can0 289#FAFF0200D4030010
(1784298299.437561) can0 290#0000040000000020
(1784298299.437591) can0 289#F9FF0100D5030020
(1784298299.447559) can0 306#6485B5FF13550000
(1784298299.447591) can0 290#0200020000000010
(1784298299.447625) can0 289#F9FF0200D5030010
(1784298299.457534) can0 290#FFFF0100FFFF0020
(1784298299.457620) can0 289#F9FF0200D3030020
(1784298299.467541) can0 306#6485B5FF13550000
(1784298299.467639) can0 290#00000200FEFF0010
(1784298299.467808) can0 289#FAFF0100D4030010
(1784298299.477538) can0 290#00000200FEFF0020
(1784298299.477570) can0 289#F8FF0300D3030020
(1784298299.487552) can0 306#6485B5FF13550000
(1784298299.487585) can0 290#00000100FFFF0010
(1784298299.487654) can0 289#F9FF0200D4030010
(1784298299.497536) can0 290#00000100FFFF0020
(1784298299.497628) can0 289#F9FF0200D4030020
(1784298299.507543) can0 306#6485B4FF13550000
(1784298299.507640) can0 290#00000300FFFF0010
(1784298299.507811) can0 289#F9FF0200D4030010
(1784298299.517541) can0 290#00000200FEFF0020
(1784298299.517572) can0 289#F8FF0300D6030020
(1784298299.527551) can0 306#6485B4FF13550000
(1784298299.527584) can0 290#00000100FEFF0010
(1784298299.527652) can0 289#F9FF0300D4030010
(1784298299.537538) can0 290#00000100FEFF0020
(1784298299.537630) can0 289#F9FF0100D5030020
(1784298299.547546) can0 306#6485B4FF13550000
(1784298299.547642) can0 290#0000030000000010
(1784298299.547812) can0 289#F9FF0200D3030010
(1784298299.557543) can0 290#00000300FEFF0020
(1784298299.557575) can0 289#F9FF0300D4030020
(1784298299.567549) can0 306#6485B4FF13550000
(1784298299.567582) can0 290#00000200FFFF0010
(1784298299.567651) can0 289#F9FF0200D5030010
(1784298299.577541) can0 290#00000000FFFF0020
(1784298299.577626) can0 289#FAFF0200D4030020
(1784298299.587547) can0 306#6485B4FF13550000
(1784298299.587642) can0 290#00000300FFFF0010
(1784298299.587806) can0 289#F9FF0200D4030010
(1784298299.597544) can0 290#00000300FFFF0020
(1784298299.597575) can0 289#F8FF0200D4030020
(1784298299.607576) can0 306#6485B4FF13550000
(1784298299.607617) can0 290#00000100FFFF0010
(1784298299.607634) can0 289#F9FF0200D5030010
(1784298299.617541) can0 290#00000200FDFF0020
(1784298299.617634) can0 289#FAFF0200D3030020
(1784298299.627549) can0 306#6485B4FF13550000
(1784298299.627650) can0 290#00000000FFFF0010
(1784298299.627818) can0 289#F9FF0100D3030010
(1784298299.637549) can0 290#01000200FEFF0020
(1784298299.637580) can0 289#F9FF0200D5030020
(1784298299.647556) can0 306#6485B4FF14550000
(1784298299.647589) can0 290#00000200FEFF0010
(1784298299.647658) can0 289#F8FF0100D4030010
(1784298299.657547) can0 290#00000200FFFF0020
(1784298299.657636) can0 289#F9FF0300D4030020
(1784298299.667549) can0 306#6485B4FF14550000
(1784298299.667648) can0 290#00000000FEFF0010
(1784298299.667819) can0 289#FAFF0200D4030010
(1784298299.677559) can0 290#00000200FFFF0020
(1784298299.677591) can0 289#F8FF0200D4030020
(1784298299.687565) can0 306#6485B4FF14550000
(1784298299.687596) can0 290#FFFF0200FEFF0010
(1784298299.687665) can0 289#F8FF0300D4030010
(1784298299.697546) can0 290#00000100FFFF0020
(1784298299.697632) can0 289#FAFF0200D4030020
(1784298299.707554) can0 306#6485B4FF14550000
(1784298299.707651) can0 290#FFFF0200FFFF0010
(1784298299.707812) can0 289#F9FF0300D4030010
(1784298299.717556) can0 290#00000200FFFF0020
(1784298299.717587) can0 289#F9FF0300D5030020
(1784298299.727565) can0 306#6485B4FF14550000
(1784298299.727597) can0 290#00000200FFFF0010
(1784298299.727672) can0 289#F9FF0200D4030010
(1784298299.737548) can0 290#00000200FFFF92BE
(1784298299.737635) can0 289#F8FF0200D40392BE
(1784298299.747553) can0 306#6485B4FF14550000
(1784298299.747656) can0 290#00000100FFFF0010
(1784298299.747796) can0 289#F9FF0200D4030010
(1784298299.748697) can0 288#EFA703000000910B
(1784298299.757598) can0 290#00000300FFFF0000
(1784298299.757655) can0 289#F9FF0200D5030000
(1784298299.767530) can0 306#6485B4FF14550000
(1784298299.767699) can0 290#00000100FFFF0010
(1784298299.767737) can0 289#F9FF0300D4030010
(1784298299.777545) can0 290#0000030000000020
(1784298299.777576) can0 289#F9FF0200D5030020
(1784298299.787614) can0 306#6485B4FF14550000
(1784298299.787655) can0 290#00000200FFFF0010
(1784298299.787673) can0 289#F9FF0300D5030010
(1784298299.797670) can0 290#00000000FEFF0060
(1784298299.797702) can0 289#F9FF0300D3030060
(1784298299.807667) can0 306#6485B4FF15550000
(1784298299.807713) can0 290#00000200FFFF0010
(1784298299.807735) can0 289#FAFF0200D5030010
(1784298299.817667) can0 290#00000200FFFF0020
(1784298299.817699) can0 289#F8FF0200D3030020
(1784298299.827554) can0 306#6485B4FF15550000
(1784298299.827585) can0 290#00000300FFFF0010
(1784298299.827609) can0 289#F9FF0200D4030010
(1784298299.837528) can0 290#00000200FFFF0020
(1784298299.837620) can0 289#F9FF0200D5030020
(1784298299.847533) can0 306#6485B4FF15550000
(1784298299.847635) can0 290#0000010000000010
(1784298299.847802) can0 289#F9FF0200D4030010
(1784298299.857551) can0 290#FFFF0200FEFF0020
(1784298299.857581) can0 289#F9FF0300D4030020
(1784298299.867544) can0 306#6485B4FF15550000
(1784298299.867577) can0 290#00000200FFFF0010
(1784298299.867721) can0 289#F8FF0100D4030010
(1784298299.877531) can0 290#0000000000000020
(1784298299.877697) can0 289#F9FF0200D5030020
(1784298299.887535) can0 306#6485B4FF15550000
(1784298299.887639) can0 290#0000010000000010
(1784298299.887811) can0 289#F9FF0100D4030010
(1784298299.897558) can0 290#0000020000000020
(1784298299.897590) can0 289#F8FF0300D3030020
(1784298299.907564) can0 306#6485B4FF15550000
(1784298299.907605) can0 290#00000100FFFF0010
(1784298299.907622) can0 289#FAFF0200D3030010
(1784298299.917534) can0 290#00000200FFFF0020
(1784298299.917624) can0 289#F9FF0200D4030020
(1784298299.927538) can0 306#6485B4FF14550000
(1784298299.927635) can0 290#00000100FFFF0010
(1784298299.927806) can0 289#F8FF0300D4030010
(1784298299.937554) can0 290#0000020000000020
(1784298299.937584) can0 289#FAFF0200D5030020
(1784298299.947547) can0 306#6485B4FF14550000
(1784298299.947580) can0 290#00000100FFFF0010
(1784298299.947647) can0 289#FAFF0200D4030010
(1784298299.957540) can0 290#00000100FFFF0020
(1784298299.957625) can0 289#FAFF0200D4030020
(1784298299.967538) can0 306#6485B4FF15550000
(1784298299.967635) can0 290#00000200FFFF0010
(1784298299.967807) can0 289#F8FF0200D4030010
(1784298299.977413) can0 290#0000020000000020
(1784298299.977501) can0 289#F9FF0100D4030020
(1784298299.987571) can0 306#6485B4FF14550000
(1784298299.987610) can0 290#00000100FFFF0010
(1784298299.987628) can0 289#FBFF0300D4030010
(1784298299.997536) can0 290#0000030000000020
(1784298299.997622) can0 289#F9FF0200D4030020
(1784298300.007544) can0 306#6485B4FF14550000
(1784298300.007647) can0 290#0000020000000010
(1784298300.007811) can0 289#F9FF0200D4030010
(1784298300.017564) can0 290#0000010000000020
(1784298300.017595) can0 289#F9FF0100D5030020
(1784298300.027566) can0 306#6485B4FF14550000
(1784298300.027597) can0 290#00000100FFFF0010
(1784298300.027627) can0 289#F9FF0100D4030010
(1784298300.037440) can0 290#00000100FFFF0020
(1784298300.037618) can0 289#F9FF0300D5030020
(1784298300.047546) can0 306#6485B4FF14550000
(1784298300.047647) can0 290#00000000FFFF0010
(1784298300.047819) can0 289#F9FF0200D4030010
(1784298300.057550) can0 290#02000100FFFF0020
(1784298300.057582) can0 289#F9FF0200D4030020
(1784298300.067573) can0 306#6485B4FF14550000
(1784298300.067612) can0 290#00000200FFFF0010
(1784298300.067630) can0 289#FAFF0200D3030010
(1784298300.077540) can0 290#01000200FFFF0020
(1784298300.077627) can0 289#F9FF0300D4030020
(1784298300.087548) can0 306#6485B4FF14550000
(1784298300.087645) can0 290#00000200FEFF0010
(1784298300.087815) can0 289#FAFF0100D4030010
(1784298300.097553) can0 290#00000300FFFF0020
(1784298300.097584) can0 289#F9FF0200D4030020
(1784298300.107574) can0 306#6485B4FF14550000
(1784298300.107614) can0 290#0000010000000010
(1784298300.107633) can0 289#F9FF0200D4030010
(1784298300.117543) can0 290#00000200FFFF0020
(1784298300.117634) can0 289#F9FF0300D5030020
(1784298300.127546) can0 306#6485B4FF14550000
(1784298300.127643) can0 290#00000000FFFF0010
(1784298300.127811) can0 289#F9FF0200D4030010
(1784298300.137551) can0 290#00000200FFFF0020
(1784298300.137582) can0 289#F9FF0300D4030020
(1784298300.147564) can0 306#6485B4FF14550000
(1784298300.147607) can0 290#00000000FFFF0010
(1784298300.147625) can0 289#F9FF0100D4030010
(1784298300.157544) can0 290#00000200FFFF0020
(1784298300.157636) can0 289#FAFF0200D4030020
(1784298300.167553) can0 306#6485B4FF14550000
(1784298300.167651) can0 290#0100000000000010
(1784298300.167791) can0 289#F9FF0200D4030010
(1784298300.177411) can0 290#00000300FEFF0020
(1784298300.177478) can0 289#F9FF0200D4030020
(1784298300.187566) can0 306#6485B4FF14550000
(1784298300.187608) can0 290#00000100FFFF0010
(1784298300.187625) can0 289#F9FF0300D4030010
(1784298300.197546) can0 290#00000100FEFF0020
(1784298300.197632) can0 289#F9FF0300D5030020
(1784298300.207554) can0 306#6485B4FF14550000
(1784298300.207657) can0 290#00000100FFFF0010
(1784298300.207794) can0 289#FAFF0200D3030010
(1784298300.217562) can0 290#00000200FFFF0020
(1784298300.217593) can0 289#FAFF0200D6030020
(1784298300.227555) can0 306#6485B4FF14550000
(1784298300.227594) can0 290#00000200FFFF0010
(1784298300.227612) can0 289#F9FF0200D5030010
(1784298300.237548) can0 290#00000200FFFF0020
(1784298300.237636) can0 289#F9FF0300D5030020
(1784298300.247532) can0 306#6485B4FF14550000
(1784298300.247703) can0 290#0000020000000010
(1784298300.247736) can0 289#F9FF0100D4030010
(1784298300.257527) can0 290#00000200FFFF0020
(1784298300.257558) can0 289#F9FF0200D3030020
(1784298300.267543) can0 306#6485B4FF14550000
(1784298300.267575) can0 290#00000300FEFF0010
(1784298300.267642) can0 289#F9FF0200D4030010
(1784298300.277525) can0 290#0000020000000020
(1784298300.277636) can0 289#F9FF0200D4030020
(1784298300.287531) can0 306#6485B4FF14550000
(1784298300.287695) can0 290#FFFF0100FFFF0010
(1784298300.287757) can0 289#F9FF0200D4030010
(1784298300.297547) can0 290#00000200FFFF0020
(1784298300.297578) can0 289#F9FF0300D4030020
(1784298300.307561) can0 306#6485B4FF14550000
(1784298300.307592) can0 290#01000200FEFF0010
(1784298300.307615) can0 289#F9FF0200D3030010
(1784298300.317528) can0 290#00000200FFFF0020
(1784298300.317613) can0 289#FAFF0200D5030020
(1784298300.327534) can0 306#6485B4FF14550000
(1784298300.327697) can0 290#FFFF0100FFFF0010
(1784298300.327735) can0 289#F9FF0300D4030010
(1784298300.337549) can0 290#FFFF020000000020
(1784298300.337580) can0 289#FAFF0100D3030020
(1784298300.347562) can0 306#6485B4FF14550000
(1784298300.347593) can0 290#00000200FEFF0010
(1784298300.347617) can0 289#F9FF0100D3030010
(1784298300.357529) can0 290#00000200FFFF0020
(1784298300.357621) can0 289#F8FF0300D4030020
(1784298300.367530) can0 306#6485B4FF14550000
(1784298300.367634) can0 290#00000100FFFF0010
(1784298300.367810) can0 289#F9FF0300D5030010
(1784298300.377537) can0 290#00000000FFFF0020
(1784298300.377566) can0 289#F9FF0300D5030020
(1784298300.387547) can0 306#6485B4FF14550000
(1784298300.387578) can0 290#0000020000000010
(1784298300.387646) can0 289#FAFF0300D3030010
(1784298300.397530) can0 290#01000200FEFF0020
(1784298300.397623) can0 289#FAFF0300D4030020
(1784298300.407537) can0 306#6485B4FF14550000
(1784298300.407638) can0 290#0000020000000010
(1784298300.407812) can0 289#FAFF0300D3030010
(1784298300.417557) can0 290#00000000FFFF0020
(1784298300.417588) can0 289#FAFF0200D6030020
(1784298300.427549) can0 306#6485B4FF14550000
(1784298300.427580) can0 290#00000000FFFF0010
(1784298300.427647) can0 289#F8FF0300D4030010
(1784298300.437534) can0 290#00000100FFFF0020
(1784298300.437625) can0 289#F9FF0200D5030020
(1784298300.447540) can0 306#6485B4FF14550000
(1784298300.447636) can0 290#01000200FFFF0010
(1784298300.447812) can0 289#F9FF0200D4030010
(1784298300.457540) can0 290#00000000FFFF0020
(1784298300.457572) can0 289#F8FF0300D4030020
(1784298300.467553) can0 306#6485B4FF14550000
(1784298300.467584) can0 290#00000200FEFF0010
(1784298300.467614) can0 289#FAFF0300D5030010
(1784298300.477536) can0 290#FFFF0100FFFF0020
(1784298300.477621) can0 289#F8FF0200D4030020
(1784298300.487543) can0 306#6485B4FF14550000
(1784298300.487641) can0 290#00000200FFFF0010
(1784298300.487810) can0 289#F9FF0100D5030010
(1784298300.497537) can0 290#01000200FFFF0020
(1784298300.497568) can0 289#FAFF0100D4030020
(1784298300.507557) can0 306#6485B4FF14550000
(1784298300.507588) can0 290#FFFF020000000010
(1784298300.507620) can0 289#F8FF0300D4030010
(1784298300.517538) can0 290#00000200FFFF0020
(1784298300.517623) can0 289#FAFF0100D4030020
(1784298300.527544) can0 306#6485B4FF14550000
(1784298300.527642) can0 290#FFFF0100FFFF0010
(1784298300.527811) can0 289#FAFF0200D3030010
(1784298300.537540) can0 290#00000100FEFF0020
(1784298300.537570) can0 289#F9FF0200D3030020
(1784298300.547554) can0 306#6485B4FF14550000
(1784298300.547586) can0 290#00000100FFFF0010
(1784298300.547654) can0 289#F9FF0200D5030010
(1784298300.557540) can0 290#00000200FEFF0020
(1784298300.557625) can0 289#F9FF0300D5030020
(1784298300.567546) can0 306#6485B4FF14550000
(1784298300.567644) can0 290#00000100FFFF0010
(1784298300.567806) can0 289#F9FF0200D4030010
(1784298300.577555) can0 290#00000100FFFF0020
(1784298300.577586) can0 289#F9FF0100D3030020
(1784298300.587560) can0 306#6485B4FF14550000
(1784298300.587591) can0 290#00000200FFFF0010
(1784298300.587658) can0 289#F9FF0200D4030010
(1784298300.597543) can0 290#00000100FFFF0020
(1784298300.597628) can0 289#F8FF0200D4030020
(1784298300.607547) can0 306#6485B4FF14550000
(1784298300.607647) can0 290#00000200FFFF0010
(1784298300.607815) can0 289#F8FF0200D4030010
(1784298300.617555) can0 290#00000200FFFF0020
(1784298300.617587) can0 289#F9FF0200D5030020
(1784298300.627563) can0 306#6485B4FF14550000
(1784298300.627594) can0 290#00000100FEFF0010
(1784298300.627661) can0 289#F9FF0200D4030010
(1784298300.637542) can0 290#00000100FFFF0020
(1784298300.637625) can0 289#F9FF0200D4030020
(1784298300.647550) can0 306#6485B4FF14550000
(1784298300.647648) can0 290#00000000FEFF0010
(1784298300.647789) can0 289#F8FF0300D4030010
(1784298300.657547) can0 290#00000200FEFF0020
(1784298300.657578) can0 289#F9FF0200D5030020
(1784298300.667552) can0 306#6485B4FF14550000
(1784298300.667583) can0 290#00000200FFFF0010
(1784298300.667608) can0 289#F9FF0200D4030010
(1784298300.677520) can0 290#0000010000000020
(1784298300.677631) can0 289#F9FF0200D3030020
(1784298300.687527) can0 306#6485B4FF14550000
(1784298300.687625) can0 290#00000100FEFF0010
(1784298300.687794) can0 289#F9FF0200D5030010
(1784298300.697551) can0 290#00000200FEFF0020
(1784298300.697581) can0 289#F8FF0300D5030020
(1784298300.707556) can0 306#6485B4FF14550000
(1784298300.707596) can0 290#00000100FFFF0010
(1784298300.707613) can0 289#F9FF0200D3030010
(1784298300.717523) can0 290#00000100FFFF0020
(1784298300.717634) can0 289#F9FF0300D4030020
(1784298300.727530) can0 306#6485B4FF14550000
(1784298300.727629) can0 290#00000300FFFF0010
(1784298300.727796) can0 289#FAFF0200D4030010
(1784298300.737425) can0 290#00000100FFFF0020
(1784298300.737491) can0 289#F9FF0100D4030020
(1784298300.747547) can0 306#6485B4FF14550000
(1784298300.747577) can0 290#0000010000000010
(1784298300.747633) can0 289#F9FF0300D5030010
(1784298300.747737) can0 288#D7AB030000008A0B
(1784298300.757587) can0 290#00000200FEFF0000
(1784298300.757619) can0 289#F8FF0200D4030000
(1784298300.767559) can0 306#6485B4FF14550000
(1784298300.767598) can0 290#00000000FFFF0010
(1784298300.767615) can0 289#F9FF0100D3030010
(1784298300.777526) can0 290#00000100FFFF0020
(1784298300.777618) can0 289#FAFF0200D5030020
(1784298300.787535) can0 306#6485B4FF14550000
(1784298300.787637) can0 290#FFFF0100FFFF0010
(1784298300.787805) can0 289#F9FF0100D5030010
(1784298300.797555) can0 290#FFFF010000000020
(1784298300.797586) can0 289#FAFF0200D3030020
(1784298300.807556) can0 306#6485B4FF14550000
(1784298300.807586) can0 290#01000200FEFF0010
(1784298300.807658) can0 289#F9FF0200D5030010
(1784298300.817527) can0 290#0000010000000020
(1784298300.817614) can0 289#F8FF0100D4030020
(1784298300.827534) can0 306#6485B4FF14550000
(1784298300.827634) can0 290#00000200FFFF0010
(1784298300.827808) can0 289#F9FF0300D5030010
(1784298300.837557) can0 290#00000100FEFF0020
(1784298300.837587) can0 289#F9FF0200D3030020
(1784298300.847544) can0 306#6485B4FF14550000
(1784298300.847576) can0 290#00000200FEFF0010
(1784298300.847647) can0 289#F8FF0300D4030010
(1784298300.857528) can0 290#00000100FFFF0020
(1784298300.857621) can0 289#F9FF0200D4030020
(1784298300.867539) can0 306#6485B4FF14550000
(1784298300.867639) can0 290#00000200FFFF0010
(1784298300.867806) can0 289#FAFF0200D3030010
(1784298300.877542) can0 290#01000200FEFF0020
(1784298300.877573) can0 289#F9FF0200D4030020
(1784298300.887563) can0 306#6485B4FF14550000
(1784298300.887593) can0 290#00000100FFFF0010
(1784298300.887618) can0 289#F9FF0200D5030010
(1784298300.897533) can0 290#00000200FFFF0020
(1784298300.897623) can0 289#FAFF0200D4030020
(1784298300.907537) can0 306#6485B4FF14550000
(1784298300.907638) can0 290#00000000FFFF0010
(1784298300.907799) can0 289#F9FF0100D4030010
(1784298300.917562) can0 290#00000100FFFF0020
(1784298300.917593) can0 289#FAFF0100D3030020
(1784298300.927546) can0 306#6485B4FF14550000
(1784298300.927577) can0 290#00000200FFFF0010
(1784298300.927635) can0 289#F9FF0200D3030010
(1784298300.937535) can0 290#00000100FFFF0020
(1784298300.937625) can0 289#F8FF0200D4030020
(1784298300.947538) can0 306#6485B4FF15550000
(1784298300.947639) can0 290#01000000FDFF0010
(1784298300.947808) can0 289#F8FF0200D3030010
(1784298300.957550) can0 290#00000200FFFF0020
(1784298300.957582) can0 289#F8FF0300D3030020
(1784298300.967570) can0 306#6485B5FF14550000
(1784298300.967601) can0 290#00000200FFFF0010
(1784298300.967626) can0 289#FAFF0300D4030010
(1784298300.977536) can0 290#00000200FEFF0020
(1784298300.977628) can0 289#F9FF0200D4030020
(1784298300.987541) can0 306#6485B5FF14550000
(1784298300.987641) can0 290#00000100FFFF0010
(1784298300.987810) can0 289#FAFF0200D4030010
(1784298300.997552) can0 290#0000010000000020
(1784298300.997583) can0 289#FAFF0100D4030020
(1784298301.007555) can0 306#6485B5FF14550000
(1784298301.007586) can0 290#00000200FFFF0010
(1784298301.007658) can0 289#F9FF0100D4030010
(1784298301.017540) can0 290#FFFF0000FFFF0020
(1784298301.017626) can0 289#F9FF0200D4030020
(1784298301.027545) can0 306#6485B5FF15550000
(1784298301.027647) can0 290#01000000FFFF0010
(1784298301.027797) can0 289#F9FF0200D4030010
(1784298301.037552) can0 290#0000020000000020
(1784298301.037584) can0 289#FAFF0200D5030020
(1784298301.047552) can0 306#6485B5FF14550000
(1784298301.047584) can0 290#00000200FFFF0010
(1784298301.047657) can0 289#F9FF0200D4030010
(1784298301.057539) can0 290#00000200FFFF0020
(1784298301.057632) can0 289#FAFF0200D5030020
(1784298301.067547) can0 306#6485B5FF14550000
(1784298301.067649) can0 290#00000200FFFF0010
(1784298301.067806) can0 289#FAFF0200D4030010
(1784298301.077554) can0 290#00000200FFFF0020
(1784298301.077586) can0 289#FAFF0200D4030020
(1784298301.087506) can0 306#6485B5FF14550000
(1784298301.087592) can0 290#00000200FEFF0010
(1784298301.087637) can0 289#FAFF0200D4030010
(1784298301.097542) can0 290#00000100FEFF0020
(1784298301.097601) can0 289#FAFF0200D4030020
(1784298301.107528) can0 306#6485B5FF14550000
(1784298301.107700) can0 290#00000200FFFF0010
(1784298301.107735) can0 289#F9FF0300D4030010
(1784298301.117545) can0 290#01000200FFFF0020
(1784298301.117575) can0 289#F7FF0300D3030020
(1784298301.127537) can0 306#6485B5FF14550000
(1784298301.127568) can0 290#00000200FFFF0010
(1784298301.127640) can0 289#F9FF0200D5030010
(1784298301.137517) can0 290#00000100FFFF0020
(1784298301.137611) can0 289#F9FF0200D4030020
(1784298301.147455) can0 306#6385B5FF14550000
(1784298301.147683) can0 290#00000100FFFF0010
(1784298301.147728) can0 289#F9FF0300D5030010
(1784298301.157418) can0 290#00000200FEFF0020
(1784298301.157542) can0 289#F8FF0200D4030020
(1784298301.167376) can0 306#6485B5FF14550000
(1784298301.167476) can0 290#00000200FFFF0010
(1784298301.167606) can0 289#F9FF0200D4030010
(1784298301.177436) can0 290#FFFF0200FFFF0020
(1784298301.177607) can0 289#F9FF0100D4030020
(1784298301.187425) can0 306#6485B5FF14550000
(1784298301.187653) can0 290#0000020000000010
(1784298301.187745) can0 289#F9FF0200D4030010
(1784298301.197420) can0 290#FFFF0200FFFF0020
(1784298301.197592) can0 289#F9FF0100D4030020
(1784298301.207559) can0 306#6485B5FF14550000
(1784298301.207603) can0 290#FFFF0100FFFF0010
(1784298301.207620) can0 289#F9FF0200D4030010
(1784298301.217526) can0 290#00000000FFFF0020
(1784298301.217615) can0 289#FAFF0300D4030020
(1784298301.227532) can0 306#6485B5FF14550000
(1784298301.227637) can0 290#00000200FFFF0010
(1784298301.227806) can0 289#F9FF0200D4030010
(1784298301.237550) can0 290#00000100FFFF0020
(1784298301.237582) can0 289#FAFF0200D3030020
(1784298301.247548) can0 306#6485B5FF14550000
(1784298301.247580) can0 290#FFFF010000000010
(1784298301.247654) can0 289#FAFF0300D3030010
(1784298301.257526) can0 290#00000200FFFF0020
(1784298301.257617) can0 289#F8FF0300D4030020
(1784298301.267532) can0 306#6485B5FF14550000
(1784298301.267636) can0 290#FFFF020000000010
(1784298301.267800) can0 289#F9FF0300D5030010
(1784298301.277540) can0 290#00000200FFFF0020
(1784298301.277573) can0 289#F9FF0300D3030020
(1784298301.287547) can0 306#6485B5FF14550000
(1784298301.287580) can0 290#00000100FFFF0010
(1784298301.287653) can0 289#FAFF0300D4030010
(1784298301.297530) can0 290#00000100FEFF0020
(1784298301.297619) can0 289#FAFF0300D4030020
(1784298301.307539) can0 306#6485B5FF14550000
(1784298301.307643) can0 290#00000000FFFF0010
(1784298301.307800) can0 289#F8FF0300D4030010
(1784298301.317551) can0 290#0000010000000020
(1784298301.317583) can0 289#F9FF0200D3030020
(1784298301.327566) can0 306#6485B5FF14550000
(1784298301.327607) can0 290#01000200FFFF0010
(1784298301.327624) can0 289#F8FF0300D3030010
(1784298301.337531) can0 290#0000010000000020
(1784298301.337617) can0 289#F9FF0100D4030020
(1784298301.347539) can0 306#6485B5FF14550000
(1784298301.347643) can0 290#0000030000000010
(1784298301.347813) can0 289#F9FF0200D4030010
(1784298301.357539) can0 290#00000300FFFF0020
(1784298301.357572) can0 289#FAFF0200D4030020
(1784298301.367559) can0 306#6485B5FF14550000
(1784298301.367592) can0 290#00000100FFFF0010
(1784298301.367627) can0 289#F8FF0100D4030010
(1784298301.377534) can0 290#00000300FFFF0020
(1784298301.377623) can0 289#F9FF0200D4030020
(1784298301.387545) can0 306#6485B5FF14550000
(1784298301.387650) can0 290#01000200FFFF0010
(1784298301.387787) can0 289#FAFF0200D4030010
(1784298301.397552) can0 290#01000200FFFF0020
(1784298301.397585) can0 289#F9FF0200D3030020
(1784298301.407569) can0 306#6485B5FF14550000
(1784298301.407610) can0 290#00000200FFFF0010
(1784298301.407627) can0 289#F9FF0300D4030010
(1784298301.417536) can0 290#0000010000000020
(1784298301.417625) can0 289#F8FF0200D3030020
(1784298301.427547) can0 306#6485B5FF14550000
(1784298301.427651) can0 290#00000300FFFF0010
(1784298301.427789) can0 289#F8FF0200D3030010
(1784298301.437542) can0 290#FFFF0200FFFF0020
(1784298301.437576) can0 289#F8FF0300D4030020
(1784298301.447558) can0 306#6485B5FF14550000
(1784298301.447590) can0 290#00000200FFFF0010
(1784298301.447616) can0 289#F8FF0200D4030010
(1784298301.457540) can0 290#00000100FFFF0020
(1784298301.457627) can0 289#F9FF0300D5030020
(1784298301.467543) can0 306#6485B5FF14550000
(1784298301.467647) can0 290#00000300FFFF0010
(1784298301.467804) can0 289#F9FF0200D4030010
(1784298301.477550) can0 290#01000200FFFF0020
(1784298301.477583) can0 289#F8FF0200D6030020
(1784298301.487561) can0 306#6485B5FF14550000
(1784298301.487608) can0 290#00000200FEFF0010
(1784298301.487626) can0 289#F9FF0200D3030010
(1784298301.497542) can0 290#02000200FEFF0020
(1784298301.497629) can0 289#F9FF0200D4030020
(1784298301.507545) can0 306#6485B5FF14550000
(1784298301.507647) can0 290#01000100FFFF0010
(1784298301.507794) can0 289#F9FF0200D4030010
(1784298301.517556) can0 290#00000200FEFF0020
(1784298301.517589) can0 289#FAFF0100D5030020
(1784298301.527573) can0 306#6485B5FF14550000
(1784298301.527616) can0 290#00000200FFFF0010
(1784298301.527634) can0 289#F9FF0100D5030010
(1784298301.537541) can0 290#00000100FFFF0020
(1784298301.537605) can0 289#F9FF0200D4030020
(1784298301.547523) can0 306#6485B5FF14550000
(1784298301.547694) can0 290#00000200FFFF0010
(1784298301.547728) can0 289#FAFF0200D5030010
(1784298301.557520) can0 290#0000010000000020
(1784298301.557554) can0 289#FAFF0400D4030020
(1784298301.567536) can0 306#6485B4FF14550000
(1784298301.567568) can0 290#00000300FFFF0010
(1784298301.567641) can0 289#F9FF0100D4030010
(1784298301.577519) can0 290#0000010000000020
(1784298301.577628) can0 289#FAFF0200D4030020
(1784298301.587526) can0 306#6485B5FF14550000
(1784298301.587695) can0 290#0000010000000010
(1784298301.587730) can0 289#FAFF0300D4030010
(1784298301.597547) can0 290#00000100FEFF0020
(1784298301.597579) can0 289#F8FF0200D4030020
(1784298301.607537) can0 306#6485B5FF14550000
(1784298301.607569) can0 290#00000000FEFF0010
(1784298301.607642) can0 289#F9FF0100D5030010
(1784298301.617522) can0 290#00000100FEFF0020
(1784298301.617630) can0 289#FAFF0200D5030020
(1784298301.627529) can0 306#6485B4FF14550000
(1784298301.627699) can0 290#00000300FFFF0010
(1784298301.627732) can0 289#F9FF0300D4030010
(1784298301.637527) can0 290#00000200FFFF0020
(1784298301.637561) can0 289#FBFF0200D4030020
(1784298301.647555) can0 306#6485B5FF14550000
(1784298301.647596) can0 290#00000200FFFF0010
(1784298301.647613) can0 289#FAFF0200D3030010
(1784298301.657526) can0 290#FFFF0300FFFF0020
(1784298301.657619) can0 289#F9FF0200D3030020
(1784298301.667529) can0 306#6485B5FF14550000
(1784298301.667635) can0 290#0000020000000010
(1784298301.667802) can0 289#F9FF0200D5030010
(1784298301.677535) can0 290#01000100FEFF0020
(1784298301.677567) can0 289#F8FF0300D4030020
(1784298301.687541) can0 306#6485B5FF14550000
(1784298301.687574) can0 290#FFFF0100FFFF0010
(1784298301.687599) can0 289#F9FF0200D4030010
(1784298301.697528) can0 290#00000100FFFF0020
(1784298301.697619) can0 289#F9FF0200D3030020
(1784298301.707536) can0 306#6485B5FF14550000
(1784298301.707640) can0 290#00000200FFFF0010
(1784298301.707805) can0 289#FAFF0200D5030010
(1784298301.717547) can0 290#00000100FFFF0020
(1784298301.717578) can0 289#FAFF0300D5030020
(1784298301.727544) can0 306#6485B5FF14550000
(1784298301.727576) can0 290#00000100FFFF0010
(1784298301.727648) can0 289#F9FF0200D5030010
(1784298301.737532) can0 290#0000020000000020
(1784298301.737619) can0 289#FAFF0300D6030020
(1784298301.747534) can0 306#6485B5FF14550000
(1784298301.747637) can0 290#0000010000000010
(1784298301.747800) can0 289#F9FF0200D4030010
(1784298301.748769) can0 288#BFAF030000008F0B
(1784298301.757554) can0 290#00000200FFFF0000
(1784298301.757617) can0 289#F9FF0100D4030000
(1784298301.767535) can0 306#6485B5FF14550000
(1784298301.767637) can0 290#00000200FEFF0010
(1784298301.767799) can0 289#F9FF0100D4030010
(1784298301.777542) can0 290#FFFF010000000020
(1784298301.777575) can0 289#F9FF0200D5030020
(1784298301.787547) can0 306#6485B5FF14550000
(1784298301.787580) can0 290#0000030000000010
(1784298301.787653) can0 289#F9FF0300D4030010
(1784298301.797528) can0 290#00000300FEFF0020
(1784298301.797616) can0 289#F8FF0100D3030020
(1784298301.807539) can0 306#6485B5FF14550000
(1784298301.807642) can0 290#00000100FFFF0010
(1784298301.807802) can0 289#F9FF0200D4030010
(1784298301.817545) can0 290#FFFF0300FFFF0020
(1784298301.817578) can0 289#F9FF0300D4030020
(1784298301.827559) can0 306#6485B5FF13550000
(1784298301.827591) can0 290#0000020000000010
(1784298301.827619) can0 289#F8FF0200D5030010
(1784298301.837532) can0 290#00000300FFFF0020
(1784298301.837626) can0 289#F9FF0300D4030020
(1784298301.847541) can0 306#6485B5FF13550000
(1784298301.847644) can0 290#00000100FFFF0010
(1784298301.847802) can0 289#F9FF0100D3030010
(1784298301.857551) can0 290#00000200FEFF0020
(1784298301.857584) can0 289#F8FF0300D4030020
(1784298301.867565) can0 306#6485B5FF14550000
(1784298301.867605) can0 290#00000200FFFF0010
(1784298301.867621) can0 289#F9FF0200D5030010
(1784298301.877536) can0 290#00000100FEFF0020
(1784298301.877631) can0 289#FAFF0200D4030020
(1784298301.887540) can0 306#6485B5FF13550000
(1784298301.887641) can0 290#00000100FEFF0010
(1784298301.887806) can0 289#F9FF0200D4030010
(1784298301.897551) can0 290#FFFF0200FFFF0020
(1784298301.897584) can0 289#F9FF0100D3030020
(1784298301.907557) can0 306#6485B5FF13550000
(1784298301.907605) can0 290#0000020000000010
(1784298301.907623) can0 289#FAFF0200D3030010
(1784298301.917537) can0 290#0000020000000020
(1784298301.917632) can0 289#F9FF0200D4030020
(1784298301.927543) can0 306#6485B5FF13550000
(1784298301.927644) can0 290#00000100FFFF0010
(1784298301.927788) can0 289#FAFF0300D4030010
(1784298301.937567) can0 290#00000100FEFF0020
(1784298301.937600) can0 289#FAFF0100D4030020
(1784298301.947556) can0 306#6485B5FF14550000
(1784298301.947589) can0 290#0000010000000010
(1784298301.947662) can0 289#F9FF0200D5030010
(1784298301.957539) can0 290#0000020000000020
(1784298301.957635) can0 289#F9FF0300D4030020
(1784298301.967543) can0 306#6485B5FF14550000
(1784298301.967645) can0 290#00000000FFFF0010
(1784298301.967788) can0 289#F9FF0200D4030010
(1784298301.977527) can0 290#01000200FEFF0020
(1784298301.977560) can0 289#FAFF0200D5030020
(1784298301.987559) can0 306#6485B5FF14550000
(1784298301.987592) can0 290#00000300FEFF0010
(1784298301.987627) can0 289#F9FF0300D3030010
(1784298301.997549) can0 290#00000100FFFF0020
(1784298301.997618) can0 289#F9FF0200D5030020
(1784298302.007524) can0 306#6485B5FF14550000
(1784298302.007694) can0 290#0100010000000010
(1784298302.007761) can0 289#F9FF0300D4030010
(1784298302.017554) can0 290#0000020000000020
(1784298302.017586) can0 289#F9FF0200D3030020
(1784298302.027545) can0 306#6485B5FF14550000
(1784298302.027587) can0 290#00000100FFFF0010
(1784298302.027605) can0 289#F9FF0300D4030010
(1784298302.037517) can0 290#FFFF0200FFFF0020
(1784298302.037607) can0 289#FAFF0200D4030020
(1784298302.047525) can0 306#6485B5FF14550000
(1784298302.047692) can0 290#00000200FEFF0010
(1784298302.047727) can0 289#F8FF0200D5030010
(1784298302.057547) can0 290#01000200FFFF0020
(1784298302.057579) can0 289#F9FF0200D4030020
(1784298302.067536) can0 306#6485B5FF14550000
(1784298302.067568) can0 290#00000200FEFF0010
(1784298302.067641) can0 289#F9FF0300D4030010
(1784298302.077520) can0 290#00000200FFFF0020
(1784298302.077627) can0 289#F8FF0200D4030020
(1784298302.087526) can0 306#6485B5FF14550000
(1784298302.087629) can0 290#FFFF020000000010
(1784298302.087791) can0 289#FAFF0200D3030010
(1784298302.097544) can0 290#0000010000000020
(1784298302.097577) can0 289#F9FF0200D4030020
(1784298302.107545) can0 306#6485B5FF14550000
(1784298302.107578) can0 290#00000100FEFF0010
(1784298302.107608) can0 289#F9FF0200D5030010
(1784298302.117525) can0 290#0000010000000020
(1784298302.117619) can0 289#F9FF0200D3030020
(1784298302.127528) can0 306#6485B5FF14550000
(1784298302.127631) can0 290#01000200FFFF0010
(1784298302.127799) can0 289#FAFF0300D4030010
(1784298302.137550) can0 290#0000020000000020
(1784298302.137583) can0 289#F9FF0200D5030020
(1784298302.147558) can0 306#6485B5FF14550000
(1784298302.147600) can0 290#00000100FFFF0010
(1784298302.147617) can0 289#F9FF0300D4030010
(1784298302.157525) can0 290#0000020000000020
(1784298302.157619) can0 289#FAFF0200D4030020
(1784298302.167531) can0 306#6485B5FF14550000
(1784298302.167633) can0 290#00000100FEFF0010
(1784298302.167798) can0 289#F9FF0100D5030010
(1784298302.177549) can0 290#0000020000000020
(1784298302.177583) can0 289#F9FF0100D5030020
(1784298302.187560) can0 306#6485B5FF14550000
(1784298302.187601) can0 290#00000300FFFF0010
(1784298302.187619) can0 289#F9FF0300D3030010
(1784298302.197525) can0 290#00000200FFFF0020
(1784298302.197612) can0 289#F9FF0300D4030020
(1784298302.207534) can0 306#6485B5FF14550000
(1784298302.207636) can0 290#0000020000000010
(1784298302.207796) can0 289#F9FF0300D4030010
(1784298302.217540) can0 290#00000100FFFF0020
(1784298302.217574) can0 289#F8FF0200D3030020
(1784298302.227545) can0 306#6485B5FF14550000
(1784298302.227577) can0 290#0000010000000010
(1784298302.227608) can0 289#F9FF0200D4030010
(1784298302.237537) can0 290#00000200FEFF0020
(1784298302.237628) can0 289#F8FF0100D4030020
(1784298302.247536) can0 306#6485B5FF14550000
(1784298302.247638) can0 290#00000200FFFF0010
(1784298302.247791) can0 289#F8FF0200D3030010
(1784298302.257541) can0 290#00000200FFFF0020
(1784298302.257574) can0 289#F9FF0300D3030020
(1784298302.267561) can0 306#6485B5FF14550000
(1784298302.267593) can0 290#00000200FFFF0010
(1784298302.267623) can0 289#F9FF0100D5030010
(1784298302.277531) can0 290#00000200FFFF0020
(1784298302.277619) can0 289#F9FF0300D4030020
(1784298302.287537) can0 306#6485B5FF14550000
(1784298302.287640) can0 290#01000300FEFF0010
(1784298302.287782) can0 289#F9FF0200D4030010
(1784298302.297560) can0 290#00000100FFFF0020
(1784298302.297592) can0 289#FAFF0200D5030020
(1784298302.307564) can0 306#6485B5FF14550000
(1784298302.307596) can0 290#00000000FFFF0010
(1784298302.307624) can0 289#F9FF0200D4030010
(1784298302.317534) can0 290#00000200FFFF0020
(1784298302.317626) can0 289#F9FF0200D4030020
(1784298302.327539) can0 306#6485B5FF14550000
(1784298302.327640) can0 290#00000200FFFF0010
(1784298302.327803) can0 289#F9FF0100D4030010
(1784298302.337547) can0 290#00000200FFFF0020
(1784298302.337580) can0 289#F8FF0300D4030020
(1784298302.347634) can0 306#6485B5FF14550000
(1784298302.347676) can0 290#0000010000000010
(1784298302.347693) can0 289#FBFF0200D4030010
(1784298302.357645) can0 290#00000200FFFF0060
(1784298302.357693) can0 289#F9FF0200D4030060
(1784298302.367649) can0 306#6485B5FF14550000
(1784298302.367696) can0 290#00000100FFFF0010
(1784298302.367765) can0 289#F8FF0200D4030010
(1784298302.377662) can0 290#00000200FFFF0020
(1784298302.377695) can0 289#F9FF0200D5030020
(1784298302.387558) can0 306#6485B5FF14550000
(1784298302.387606) can0 290#0000020000000010
(1784298302.387624) can0 289#F9FF0200D3030010
(1784298302.397536) can0 290#0100020000000020
(1784298302.397625) can0 289#F9FF0200D5030020
(1784298302.407549) can0 306#6485B5FF14550000
(1784298302.407654) can0 290#0000020000000010
(1784298302.407802) can0 289#F9FF0200D4030010
(1784298302.417550) can0 290#0000020000000020
(1784298302.417583) can0 289#FAFF0200D4030020
(1784298302.427569) can0 306#6485B5FF14550000
(1784298302.427601) can0 290#01000200FFFF0010
(1784298302.427630) can0 289#F9FF0200D3030010
(1784298302.437536) can0 290#00000200FFFF0020
(1784298302.437671) can0 289#F9FF0200D4030020
(1784298302.447524) can0 306#6485B5FF14550000
(1784298302.447760) can0 290#0000020000000010
(1784298302.447809) can0 289#F9FF0200D5030010
(1784298302.457544) can0 290#00000200FCFF0020
(1784298302.457575) can0 289#F9FF0100D5030020
(1784298302.467416) can0 306#6485B5FF14550000
(1784298302.467471) can0 290#00000100FFFF0010
(1784298302.467674) can0 289#F9FF0100D5030010
(1784298302.477420) can0 290#FFFF020000000020
(1784298302.477688) can0 289#F9FF0200D4030020
(1784298302.487522) can0 306#6485B5FF14550000
(1784298302.487688) can0 290#00000200FFFF0010
(1784298302.487721) can0 289#F9FF0200D4030010
(1784298302.497536) can0 290#00000100FFFF0020
(1784298302.497567) can0 289#FAFF0200D4030020
(1784298302.507551) can0 306#6485B5FF14550000
(1784298302.507590) can0 290#0100010000000010
(1784298302.507608) can0 289#FAFF0200D4030010
(1784298302.517519) can0 290#00000200FEFF0020
(1784298302.517625) can0 289#F9FF0300D5030020
(1784298302.527386) can0 306#6485B5FF14550000
(1784298302.527605) can0 290#0000020000000010
(1784298302.527738) can0 289#F9FF0200D3030010
(1784298302.537548) can0 290#01000100FFFF0020
(1784298302.537579) can0 289#F9FF0200D5030020
(1784298302.547552) can0 306#6485B5FF14550000
(1784298302.547593) can0 290#00000200FFFF0010
(1784298302.547611) can0 289#F9FF0100D4030010
(1784298302.557521) can0 290#0100010000000020
(1784298302.557608) can0 289#F8FF0200D3030020
(1784298302.567528) can0 306#6485B5FF14550000
(1784298302.567693) can0 290#01000200FFFF0010
(1784298302.567726) can0 289#F8FF0200D5030010
(1784298302.577549) can0 290#00000200FFFF0020
(1784298302.577582) can0 289#F9FF0200D3030020
(1784298302.587548) can0 306#6485B5FF14550000
(1784298302.587588) can0 290#00000100FEFF0010
(1784298302.587607) can0 289#F8FF0200D3030010
(1784298302.597523) can0 290#00000100FFFF0020
(1784298302.597611) can0 289#F9FF0300D4030020
(1784298302.607530) can0 306#6485B5FF14550000
(1784298302.607694) can0 290#0000010000000010
(1784298302.607727) can0 289#F9FF0200D4030010
(1784298302.617551) can0 290#FFFF0100FFFF0020
(1784298302.617582) can0 289#F8FF0200D3030020
(1784298302.627541) can0 306#6485B5FF13550000
(1784298302.627574) can0 290#00000200FEFF0010
(1784298302.627642) can0 289#F8FF0200D5030010
(1784298302.637526) can0 290#0000010000000020
(1784298302.637618) can0 289#FAFF0300D4030020
(1784298302.647529) can0 306#6485B5FF13550000
(1784298302.647629) can0 290#00000300FEFF0010
(1784298302.647796) can0 289#F9FF0300D5030010
(1784298302.657539) can0 290#01000100FFFF0020
(1784298302.657572) can0 289#FAFF0200D4030020
(1784298302.667559) can0 306#6485B5FF13550000
(1784298302.667600) can0 290#00000200FFFF0010
(1784298302.667618) can0 289#FAFF0300D4030010
(1784298302.677531) can0 290#00000100FFFF0020
(1784298302.677626) can0 289#F9FF0200D3030020
(1784298302.687531) can0 306#6485B5FF13550000
(1784298302.687630) can0 290#FFFF0100FEFF0010
(1784298302.687798) can0 289#F8FF0200D4030010
(1784298302.697538) can0 290#0000010000000020
(1784298302.697571) can0 289#F8FF0100D4030020
(1784298302.707561) can0 306#6485B5FF14550000
(1784298302.707601) can0 290#00000200FFFF0010
(1784298302.707619) can0 289#F8FF0300D4030010
(1784298302.717529) can0 290#00000200FFFF0020
(1784298302.717621) can0 289#F9FF0300D3030020
(1784298302.727535) can0 306#6485B5FF13550000
(1784298302.727634) can0 290#FFFF0200FEFF0010
(1784298302.727778) can0 289#F9FF0200D4030010
(1784298302.737542) can0 290#00000100FFFF0020
(1784298302.737575) can0 289#F9FF0100D3030020
(1784298302.747556) can0 306#6485B5FF13550000
(1784298302.747587) can0 290#0000000000000010
(1784298302.747617) can0 289#F9FF0200D4030010
(1784298302.747776) can0 288#A7B303000000870B
(1784298302.757566) can0 290#00000100FFFF0000
(1784298302.757598) can0 289#F9FF0200D4030000
(1784298302.767552) can0 306#6485B5FF13550000
(1784298302.767585) can0 290#00000200FEFF0010
(1784298302.767619) can0 289#F8FF0300D4030010
(1784298302.777537) can0 290#01000100FEFF0020
(1784298302.777625) can0 289#F9FF0300D4030020
(1784298302.787540) can0 306#6485B5FF13550000
(1784298302.787640) can0 290#02000200FDFF0010
(1784298302.787802) can0 289#F9FF0200D5030010
(1784298302.797557) can0 290#00000100FEFF0020
(1784298302.797589) can0 289#F9FF0200D4030020
(1784298302.807549) can0 306#6485B5FF14550000
(1784298302.807583) can0 290#00000000FFFF0010
(1784298302.807656) can0 289#F9FF0200D3030010
(1784298302.817531) can0 290#00000200FFFF0020
(1784298302.817621) can0 289#F9FF0300D5030020
(1784298302.827540) can0 306#6485B5FF14550000
(1784298302.827641) can0 290#0000020000000010
(1784298302.827779) can0 289#F9FF0200D4030010
(1784298302.837539) can0 290#0000020000000020
(1784298302.837572) can0 289#F8FF0200D4030020
(1784298302.847552) can0 306#6485B5FF14550000
(1784298302.847585) can0 290#00000200FFFF0010
(1784298302.847615) can0 289#FBFF0200D5030010
(1784298302.857534) can0 290#00000200FFFF0020
(1784298302.857598) can0 289#F8FF0300D4030020
(1784298302.867541) can0 306#6485B5FF14550000
(1784298302.867641) can0 290#00000200FFFF0010
(1784298302.867798) can0 289#F8FF0200D5030010
(1784298302.877549) can0 290#02000100FDFF0020
(1784298302.877582) can0 289#FAFF0200D3030020
(1784298302.887553) can0 306#6485B5FF14550000
(1784298302.887586) can0 290#01000000FFFF0010
(1784298302.887616) can0 289#F9FF0200D5030010
(1784298302.897513) can0 290#0000010000000020
(1784298302.897618) can0 289#F9FF0100D5030020
(1784298302.907517) can0 306#6485B5FF14550000
(1784298302.907682) can0 290#00000200FFFF0010
(1784298302.907746) can0 289#FAFF0200D4030010
(1784298302.917519) can0 290#00000200FFFF0020
(1784298302.917552) can0 289#F8FF0300D5030020
(1784298302.927531) can0 306#6485B5FF14550000
(1784298302.927563) can0 290#00000300FEFF0010
(1784298302.927632) can0 289#F9FF0200D5030010
(1784298302.937515) can0 290#00000200FFFF0020
(1784298302.937602) can0 289#F9FF0200D4030020
(1784298302.947522) can0 306#6485B5FF14550000
(1784298302.947628) can0 290#00000000FFFF0010
(1784298302.947718) can0 289#FAFF0300D4030010
(1784298302.957543) can0 290#01000100FFFF0020
(1784298302.957574) can0 289#F8FF0200D5030020
(1784298302.967532) can0 306#6485B5FF14550000
(1784298302.967565) can0 290#00000200FEFF0010
(1784298302.967635) can0 289#F9FF0200D5030010
(1784298302.977515) can0 290#00000100FFFF0020
(1784298302.977623) can0 289#FAFF0200D4030020
(1784298302.987526) can0 306#6485B5FF13550000
(1784298302.987692) can0 290#02000100FFFF0010
(1784298302.987726) can0 289#F9FF0200D4030010
(1784298302.997527) can0 290#00000200FFFF0020
(1784298302.997560) can0 289#F9FF0300D4030020
(1784298303.007536) can0 306#6485B5FF13550000
(1784298303.007569) can0 290#00000100FFFF0010
(1784298303.007595) can0 289#FAFF0200D4030010
(1784298303.017518) can0 290#00000200FFFF0020
(1784298303.017606) can0 289#F9FF0100D3030020
(1784298303.027524) can0 306#6485B5FF13550000
(1784298303.027626) can0 290#01000200FFFF0010
(1784298303.027791) can0 289#F8FF0200D4030010
(1784298303.037546) can0 290#FFFF020000000020
(1784298303.037577) can0 289#F9FF0200D5030020
(1784298303.047546) can0 306#6485B5FF14550000
(1784298303.047589) can0 290#01000200FEFF0010
(1784298303.047607) can0 289#F9FF0300D4030010
(1784298303.057520) can0 290#00000100FFFF0020
(1784298303.057608) can0 289#F9FF0200D4030020
(1784298303.067526) can0 306#6485B5FF14550000
(1784298303.067626) can0 290#00000200FEFF0010
(1784298303.067794) can0 289#F9FF0200D4030010
(1784298303.077551) can0 290#00000100FFFF0020
(1784298303.077582) can0 289#FAFF0200D4030020
(1784298303.087555) can0 306#6485B5FF14550000
(1784298303.087596) can0 290#01000200FFFF0010
(1784298303.087614) can0 289#F8FF0200D5030010
(1784298303.097523) can0 290#00000100FEFF0020
(1784298303.097610) can0 289#FAFF0300D3030020
(1784298303.107529) can0 306#6485B5FF14550000
(1784298303.107630) can0 290#00000200FFFF0010
(1784298303.107794) can0 289#F9FF0300D4030010
(1784298303.117550) can0 290#00000000FEFF0020
(1784298303.117583) can0 289#F9FF0200D4030020
(1784298303.127558) can0 306#6485B5FF14550000
(1784298303.127603) can0 290#00000100FFFF0010
(1784298303.127620) can0 289#F9FF0100D4030010
(1784298303.137529) can0 290#0000020000000020
(1784298303.137625) can0 289#FAFF0300D5030020
(1784298303.147529) can0 306#6485B5FF14550000
(1784298303.147629) can0 290#00000200FFFF0010
(1784298303.147797) can0 289#F9FF0300D4030010
(1784298303.157535) can0 290#FFFF0200FFFF0020
(1784298303.157567) can0 289#F8FF0200D4030020
(1784298303.167561) can0 306#6485B5FF14550000
(1784298303.167610) can0 290#0000020000000010
(1784298303.167627) can0 289#F9FF0200D5030010
(1784298303.177528) can0 290#00000200FFFF0020
(1784298303.177621) can0 289#F9FF0300D4030020
(1784298303.187531) can0 306#6485B5FF14550000
(1784298303.187632) can0 290#01000000FFFF0010
(1784298303.187799) can0 289#FAFF0200D5030010
(1784298303.197539) can0 290#01000200FFFF0020
(1784298303.197572) can0 289#F9FF0200D4030020
(1784298303.207546) can0 306#6485B5FF14550000
(1784298303.207578) can0 290#00000200FFFF0010
(1784298303.207609) can0 289#F9FF0200D3030010
(1784298303.217528) can0 290#00000100FEFF0020
(1784298303.217623) can0 289#F9FF0200D4030020
(1784298303.227535) can0 306#6485B5FF14550000
(1784298303.227634) can0 290#00000200FFFF0010
(1784298303.227792) can0 289#F9FF0200D4030010
(1784298303.237538) can0 290#00000200FFFF0020
(1784298303.237571) can0 289#F9FF0200D3030020
(1784298303.247551) can0 306#6485B6FF14550000
(1784298303.247597) can0 290#00000200FFFF0010
(1784298303.247614) can0 289#F9FF0300D5030010
(1784298303.257531) can0 290#00000100FFFF0020
(1784298303.257618) can0 289#F9FF0200D5030020
(1784298303.267542) can0 306#6485B6FF14550000
(1784298303.267642) can0 290#00000300FFFF0010
(1784298303.267792) can0 289#F9FF0100D4030010
(1784298303.277553) can0 290#00000200FFFF0020
(1784298303.277586) can0 289#F9FF0200D5030020
(1784298303.287554) can0 306#6485B6FF14550000
(1784298303.287587) can0 290#0000020000000010
(1784298303.287611) can0 289#F9FF0200D5030010
(1784298303.297532) can0 290#00000300FFFF0020
(1784298303.297621) can0 289#F8FF0200D4030020
(1784298303.307539) can0 306#6485B5FF14550000
(1784298303.307640) can0 290#00000200FEFF0010
(1784298303.307779) can0 289#FAFF0200D3030010
(1784298303.317553) can0 290#0000010000000020
(1784298303.317585) can0 289#FAFF0300D4030020
(1784298303.327554) can0 306#6485B6FF14550000
(1784298303.327601) can0 290#01000200FEFF0010
(1784298303.327618) can0 289#F9FF0200D4030010
(1784298303.337516) can0 290#00000100FFFF0020
(1784298303.337609) can0 289#F9FF0300D5030020
(1784298303.347517) can0 306#6485B5FF14550000
(1784298303.347689) can0 290#00000200FFFF0010
(1784298303.347724) can0 289#F8FF0200D3030010
(1784298303.357537) can0 290#0000010000000020
(1784298303.357569) can0 289#FAFF0200D4030020
(1784298303.367528) can0 306#6485B5FF14550000
(1784298303.367561) can0 290#01000200FFFF0010
(1784298303.367631) can0 289#F8FF0200D4030010
(1784298303.377510) can0 290#00000200FEFF0020
(1784298303.377618) can0 289#F9FF0200D4030020
(1784298303.387517) can0 306#6485B5FF14550000
(1784298303.387682) can0 290#FFFF0200FEFF0010
(1784298303.387716) can0 289#F9FF0200D4030010
(1784298303.397518) can0 290#00000000FEFF0020
(1784298303.397551) can0 289#FAFF0300D4030020
(1784298303.407547) can0 306#6485B5FF14550000
(1784298303.407588) can0 290#0000020000000010
(1784298303.407605) can0 289#F9FF0200D4030010
(1784298303.417513) can0 290#0000010000000020
(1784298303.417616) can0 289#F9FF0300D4030020
(1784298303.427517) can0 306#6485B5FF15550000
(1784298303.427683) can0 290#00000200FFFF0010
(1784298303.427746) can0 289#F9FF0200D5030010
(1784298303.437531) can0 290#FFFF0200FFFF0020
(1784298303.437564) can0 289#F9FF0200D3030020
(1784298303.447548) can0 306#6485B5FF14550000
(1784298303.447580) can0 290#00000100FFFF0010
(1784298303.447607) can0 289#F8FF0300D4030010
(1784298303.457516) can0 290#00000200FFFF0020
(1784298303.457603) can0 289#FAFF0300D4030020
(1784298303.467521) can0 306#6485B5FF15550000
(1784298303.467622) can0 290#00000100FFFF0010
(1784298303.467791) can0 289#F9FF0200D4030010
(1784298303.477545) can0 290#01000000FEFF0020
(1784298303.477578) can0 289#F8FF0300D4030020
(1784298303.487533) can0 306#6485B5FF15550000
(1784298303.487566) can0 290#00000100FFFF0010
(1784298303.487591) can0 289#F9FF0200D5030010
(1784298303.497518) can0 290#01000200FEFF0020
(1784298303.497612) can0 289#F9FF0200D3030020
(1784298303.507523) can0 306#6485B5FF15550000
(1784298303.507623) can0 290#00000100FFFF0010
(1784298303.507789) can0 289#F9FF0200D4030010
(1784298303.517520) can0 290#0000030000000020
(1784298303.517552) can0 289#FBFF0200D5030020
(1784298303.527538) can0 306#6485B5FF15550000
(1784298303.527570) can0 290#00000200FFFF0010
(1784298303.527643) can0 289#FBFF0300D4030010
(1784298303.537518) can0 290#00000200FFFF0020
(1784298303.537608) can0 289#F8FF0300D3030020
(1784298303.547526) can0 306#6485B5FF14550000
(1784298303.547630) can0 290#FFFF0200FFFF0010
(1784298303.547791) can0 289#F9FF0200D5030010
(1784298303.557546) can0 290#FFFF0200FFFF0020
(1784298303.557577) can0 289#F9FF0100D5030020
(1784298303.567539) can0 306#6485B6FF14550000
(1784298303.567570) can0 290#0000010000000010
(1784298303.567643) can0 289#F9FF0200D5030010
(1784298303.577520) can0 290#00000200FFFF0020
(1784298303.577605) can0 289#F8FF0200D4030020
(1784298303.587528) can0 306#6485B6FF14550000
(1784298303.587630) can0 290#00000200FFFF0010
(1784298303.587793) can0 289#F8FF0200D4030010
(1784298303.597524) can0 290#00000200FFFF0020
(1784298303.597555) can0 289#F9FF0300D3030020
(1784298303.607554) can0 306#6485B6FF14550000
(1784298303.607585) can0 290#00000200FEFF0010
(1784298303.607615) can0 289#F9FF0300D5030010
(1784298303.617526) can0 290#00000200FFFF0020
(1784298303.617617) can0 289#F9FF0200D3030020
(1784298303.627530) can0 306#6485B6FF15550000
(1784298303.627630) can0 290#00000100FEFF0010
(1784298303.627796) can0 289#F8FF0200D4030010
(1784298303.637547) can0 290#00000200FEFF0020
(1784298303.637578) can0 289#FAFF0300D4030020
(1784298303.647541) can0 306#6485B6FF14550000
(1784298303.647572) can0 290#00000200FEFF0010
(1784298303.647639) can0 289#F9FF0200D4030010
(1784298303.657526) can0 290#00000200FEFF0020
(1784298303.657610) can0 289#F8FF0300D4030020
(1784298303.667531) can0 306#6485B6FF14550000
(1784298303.667634) can0 290#0000000000000010
(1784298303.667798) can0 289#FAFF0300D4030010
(1784298303.677537) can0 290#00000200FEFF0020
(1784298303.677568) can0 289#F9FF0100D4030020
(1784298303.687544) can0 306#6485B6FF14550000
(1784298303.687576) can0 290#00000200FFFF0010
(1784298303.687645) can0 289#FAFF0300D4030010
(1784298303.697526) can0 290#00000100FFFF0020
(1784298303.697616) can0 289#FAFF0200D5030020
(1784298303.707533) can0 306#6485B6FF14550000
(1784298303.707632) can0 290#00000100FFFF0010
(1784298303.707800) can0 289#F8FF0300D3030010
(1784298303.717549) can0 290#00000200FFFF0020
(1784298303.717580) can0 289#F9FF0200D5030020
(1784298303.727546) can0 306#6485B6FF14550000
(1784298303.727576) can0 290#0000010000000010
(1784298303.727604) can0 289#F9FF0200D5030010
(1784298303.737529) can0 290#0000010000000020
(1784298303.737613) can0 289#F9FF0200D5030020
(1784298303.747534) can0 306#6485B6FF14550000
(1784298303.747632) can0 290#00000200FFFF0010
(1784298303.747780) can0 289#F9FF0300D5030010
(1784298303.748674) can0 288#90B7030000008C0B
(1784298303.757554) can0 290#01000100FFFF0000
(1784298303.757616) can0 289#F9FF0400D4030000
(1784298303.767535) can0 306#6485B6FF15550000
(1784298303.767632) can0 290#0000020000000010
(1784298303.767775) can0 289#F9FF0200D4030010
(1784298303.777553) can0 290#00000100FFFF0020
(1784298303.777584) can0 289#F8FF0200D5030020
(1784298303.787541) can0 306#6485B6FF15550000
(1784298303.787572) can0 290#00000200FFFF0010
(1784298303.787640) can0 289#F9FF0200D6030010
(1784298303.797507) can0 290#00000200FEFF0020
(1784298303.797596) can0 289#F8FF0200D4030020
(1784298303.807511) can0 306#6485B6FF15550000
(1784298303.807608) can0 290#00000100FEFF0010
(1784298303.807785) can0 289#F9FF0300D3030010
(1784298303.817512) can0 290#00000100FFFF0020
(1784298303.817546) can0 289#F8FF0200D5030020
(1784298303.827542) can0 306#6485B6FF15550000
(1784298303.827573) can0 290#00000000FFFF0010
(1784298303.827601) can0 289#F9FF0200D4030010
(1784298303.837510) can0 290#0000010000000020
(1784298303.837598) can0 289#FAFF0300D5030020
(1784298303.847515) can0 306#6485B6FF14550000
(1784298303.847680) can0 290#00000200FFFF0010
(1784298303.847713) can0 289#FAFF0200D4030010
(1784298303.857529) can0 290#00000200FFFF0020
(1784298303.857561) can0 289#F9FF0100D5030020
(1784298303.867543) can0 306#6485B6FF14550000
(1784298303.867581) can0 290#00000200FFFF0010
(1784298303.867599) can0 289#F9FF0200D5030010
(1784298303.877513) can0 290#02000100FEFF0020
(1784298303.877600) can0 289#FAFF0200D5030020
(1784298303.887518) can0 306#6485B6FF15550000
(1784298303.887620) can0 290#0000010000000010
(1784298303.887789) can0 289#F8FF0200D5030010
(1784298303.897529) can0 290#00000200FFFF0020
(1784298303.897562) can0 289#FAFF0200D4030020
(1784298303.907547) can0 306#6385B6FF15550000
(1784298303.907577) can0 290#FFFF0100FFFF0010
(1784298303.907606) can0 289#FAFF0200D4030010
(1784298303.917514) can0 290#00000200FFFF0020
(1784298303.917598) can0 289#F8FF0100D4030020
(1784298303.927519) can0 306#6385B6FF15550000
(1784298303.927617) can0 290#00000100FFFF0010
(1784298303.927783) can0 289#FAFF0200D3030010
(1784298303.937524) can0 290#01000100FFFF0020
(1784298303.937564) can0 289#FAFF0200D4030020
(1784298303.947532) can0 306#6385B6FF15550000
(1784298303.947590) can0 290#00000200FEFF0010
(1784298303.947799) can0 289#F9FF0300D5030010
(1784298303.957519) can0 290#FFFF0100FFFF0020
(1784298303.957611) can0 289#FAFF0200D4030020
(1784298303.967521) can0 306#6385B6FF15550000
(1784298303.967623) can0 290#00000100FEFF0010
(1784298303.967783) can0 289#FAFF0300D4030010
(1784298303.977543) can0 290#0100030000000020
(1784298303.977574) can0 289#F9FF0300D5030020
(1784298303.987550) can0 306#6385B6FF15550000
(1784298303.987581) can0 290#00000200FFFF0010
(1784298303.987609) can0 289#F9FF0200D5030010
(1784298303.997517) can0 290#FFFF020000000020
(1784298303.997606) can0 289#F8FF0200D3030020
(1784298304.007521) can0 306#6385B6FF15550000
(1784298304.007621) can0 290#01000200FFFF0010
(1784298304.007788) can0 289#F9FF0300D4030010
(1784298304.017539) can0 290#FFFF0200FFFF0020
(1784298304.017571) can0 289#F8FF0200D4030020
(1784298304.027555) can0 306#6385B5FF15550000
(1784298304.027593) can0 290#00000200FEFF0010
(1784298304.027611) can0 289#F9FF0200D4030010
(1784298304.037519) can0 290#00000200FFFF0020
(1784298304.037604) can0 289#F9FF0100D5030020
(1784298304.047525) can0 306#6385B5FF15550000
(1784298304.047621) can0 290#01000100FFFF0010
(1784298304.047783) can0 289#FAFF0200D5030010
(1784298304.057524) can0 290#00000100FEFF0020
(1784298304.057556) can0 289#F9FF0200D5030020
(1784298304.067553) can0 306#6385B5FF15550000
(1784298304.067583) can0 290#00000300FFFF0010
(1784298304.067606) can0 289#F9FF0200D5030010
(1784298304.077524) can0 290#00000100FFFF0020
(1784298304.077616) can0 289#F9FF0200D4030020
