(1779526293.123598) can0 320#13888D2293830568
(1779526293.125250) can0 324#0009000800080004
(1779526293.129536) can0 328#0000000000000000
(1779526293.131410) can0 3E5#0100000000000000
(1779526293.131487) can0 364#0D90000000000000
(1779526293.131590) can0 369#0000000000000000
(1779526293.131704) can0 36A#0000000000000000
(1779526293.131828) can0 36B#0065000000000000
(1779526293.131959) can0 371#0000000000000000
(1779526293.132100) can0 3E1#0BE5000000000000
(1779526293.132215) can0 3EA#0000000000000000
(1779526293.132402) can0 3EB#00000000001E001E
(1779526293.132490) can0 3ED#0000000000000000
(1779526293.132589) can0 320#13848D1E93840563
(1779526293.132720) can0 3EF#0000000000000000
(1779526293.132845) can0 6D0#23000000C8000000
(1779526293.133684) can0 60A#2200180200
(1779526293.134487) can0 6D3#8000138300000000
(1779526293.135975) can0 324#0009000500050007
(1779526293.138544) can0 6D1#414B000028000000
(1779526293.139027) can0 328#0000000000000000
(1779526293.141608) can0 360#0000040400510000
(1779526293.141679) can0 361#041D03F500000000
(1779526293.141809) can0 362#00000000001E0000
(1779526293.141924) can0 36C#0000000000000000
(1779526293.142040) can0 36D#0000000000000000
(1779526293.142155) can0 36E#0000000000000000
(1779526293.142282) can0 320#13858D229388055E
(1779526293.142392) can0 372#00820000000003F5
(1779526293.142534) can0 3E2#02EE0000FFFF0000
(1779526293.142650) can0 3EC#0000000000000000
(1779526293.142774) can0 471#001C000104040000
(1779526293.142903) can0 472#0000000000000000
(1779526293.145686) can0 324#000800080008000B
(1779526293.146936) can0 60A#220018030000
(1779526293.149437) can0 328#0000000000000000
(1779526293.149548) can0 6D4#250033C008CA0000
(1779526293.149668) can0 6D6#01005F282DEA01A9
(1779526293.152034) can0 3E5#0100000000000000
(1779526293.152145) can0 364#0D90000000000000
(1779526293.152271) can0 36F#0000000000000000
(1779526293.152388) can0 370#0000FFFD00000000
(1779526293.152519) can0 373#0000000000000000
(1779526293.152624) can0 3E3#0000000000000000
(1779526293.152751) can0 320#13838D27937F055E
(1779526293.152875) can0 3E6#0000000000000000
(1779526293.153000) can0 3EA#0000000000000000
(1779526293.153137) can0 3EB#00000000001E001E
(1779526293.153261) can0 3ED#0000000000000000
(1779526293.153388) can0 474#0000000000000000
(1779526293.153480) can0 2B3#100112
(1779526293.153573) can0 2B1#09940000500000A4
(1779526293.154734) can0 6D0#24000000C8000000
(1779526293.155690) can0 70C#05
(1779526293.155902) can0 324#0009000500090008
(1779526293.158788) can0 6D1#810207D003E80000
(1779526293.159735) can0 328#0000000000000000
(1779526293.159846) can0 6D3#81010D2200000000
(1779526293.160596) can0 60A#220018050000
(1779526293.163501) can0 320#13878D1F93830567
(1779526293.165177) can0 360#0000040400510000
(1779526293.165260) can0 361#041B03F500000000
(1779526293.165447) can0 362#00000000001E0000
(1779526293.165560) can0 374#0000000000000000
(1779526293.165704) can0 3E4#0001000000000080
(1779526293.165817) can0 3E7#0000000400000000
(1779526293.165933) can0 3E8#0000000000000000
(1779526293.166002) can0 3E9#0000000003B60000
(1779526293.166126) can0 3EC#0000000000000000
(1779526293.166251) can0 471#0015000104040000
(1779526293.166389) can0 476#0000000000000000
(1779526293.166499) can0 324#000B000500090007
(1779526293.166668) can0 6D0#00000003E8000000
(1779526293.166796) can0 6F4#0000000000000000
(1779526293.168861) can0 328#0000000000000000
(1779526293.172167) can0 320#13848D229388055E
(1779526293.175350) can0 3E5#0100000000000000
(1779526293.175454) can0 363#0000000000000CE4
(1779526293.175596) can0 364#0D90000000000000
(1779526293.175711) can0 368#095A000000000000
(1779526293.175835) can0 375#0000000000000000
(1779526293.175945) can0 3EA#0000000000000000
(1779526293.176066) can0 3EB#00000000001E001E
(1779526293.176222) can0 3ED#0000000000000000
(1779526293.176344) can0 3EE#0000000000000000
(1779526293.176447) can0 470#095A00000000FCFD
(1779526293.176578) can0 6D1#23ED021900000000
(1779526293.176702) can0 6F0#0000000000000000
(1779526293.176833) can0 324#0009000700070009
(1779526293.179605) can0 6D0#2503E800C8000000
(1779526293.180355) can0 328#0000000000000000
(1779526293.180403) can0 6D4#260033B200000000
(1779526293.183021) can0 320#13848D2B9384055C
(1779526293.185063) can0 6D3#8201138300000000
(1779526293.187068) can0 324#0008000700090007
(1779526293.189027) can0 328#0000000000000000
(1779526293.190300) can0 360#0000040500510000
(1779526293.190405) can0 361#041B03F500000000
(1779526293.190506) can0 362#00000000001E0000
(1779526293.190611) can0 369#0000000000000000
(1779526293.190732) can0 36A#0000000000000000
(1779526293.190849) can0 36B#0065000000000000
(1779526293.190972) can0 376#0000000000000000
(1779526293.191088) can0 3EC#0000000000000000
(1779526293.191219) can0 3EF#0000000000000000
(1779526293.191404) can0 471#0015000004050000
(1779526293.191460) can0 6D1#6301000009C4000C
(1779526293.191611) can0 6F1#0000000000000000
(1779526293.192918) can0 6D6#02000CDF006B13EA
(1779526293.192980) can0 320#13888D2093830569
(1779526293.195406) can0 324#0009000900080007
(1779526293.198333) can0 328#0000000000000000
(1779526293.200111) can0 37F#04B2000000000000
(1779526293.201165) can0 3E5#0100000000000000
(1779526293.201274) can0 364#0D90000000000000
(1779526293.201391) can0 36C#0000000000000000
(1779526293.201521) can0 36D#0000000000000000
(1779526293.201643) can0 36E#0000000000000000
(1779526293.201771) can0 3EA#0000000000000000
(1779526293.201895) can0 3EB#00000000001E001E
(1779526293.202032) can0 3ED#0000000000000000
(1779526293.202163) can0 472#0000000000000000
(1779526293.202263) can0 473#0000000000000000
(1779526293.202407) can0 6D0#2603E800C8000000
(1779526293.202523) can0 6F2#0000000000000000
(1779526293.203690) can0 320#13848D2393850560
(1779526293.204628) can0 2B3#100112
(1779526293.204730) can0 2B1#09940000500000A4
(1779526293.206639) can0 324#0009000700070008
(1779526293.206748) can0 6D4#250033D703770000
(1779526293.207941) can0 328#0000000000000000
(1779526293.208581) can0 6D0#41000003E8000000
(1779526293.209246) can0 6D3#8300056400000000
(1779526293.211690) can0 360#0000040400510000
(1779526293.211798) can0 361#041903F500000000
(1779526293.211914) can0 362#00000000001E0000
(1779526293.212038) can0 36F#0000000000000000
(1779526293.212160) can0 370#0000FFFD00000000
(1779526293.212293) can0 3E6#0000000000000000
(1779526293.212507) can0 3EC#0000000000000000
(1779526293.212556) can0 471#0015000104040000
(1779526293.212654) can0 474#0000000000000000
(1779526293.212785) can0 477#FFFF000000000000
(1779526293.212914) can0 6F3#0DA50DA500000000
(1779526293.213013) can0 320#13858D2393800563
(1779526293.215089) can0 324#0007000700090005
(1779526293.218816) can0 6D0#01000003E8000000
(1779526293.219469) can0 328#0000000000000000
(1779526293.223292) can0 320#13848D1F93880567
(1779526293.224297) can0 3E5#0100000000000000
(1779526293.224442) can0 364#0D90000000000000
(1779526293.224478) can0 3E7#0000000400000000
(1779526293.224657) can0 3E8#0000000000000000
(1779526293.224776) can0 3E9#0000000003B60000
(1779526293.224908) can0 3EA#0000000000000000
(1779526293.225033) can0 3EB#00000000001E001E
(1779526293.225151) can0 3ED#0000000000000000
(1779526293.225268) can0 475#0000000000000000
(1779526293.225439) can0 476#0000000000000000
(1779526293.225555) can0 324#0009000700070009
(1779526293.225596) can0 6D0#27000000C8000000
(1779526293.225719) can0 6F4#0000000000000000
(1779526293.225825) can0 6F7#000001C20D3A0000
(1779526293.228548) can0 6D1#24ED021900000000
(1779526293.229628) can0 328#0000000000000000
(1779526293.232089) can0 320#13848D1E937F0564
(1779526293.234037) can0 6D6#03251F1E1E320015
(1779526293.234106) can0 6D3#6000000900000000
(1779526293.234880) can0 360#0000040500510000
(1779526293.234929) can0 361#041B03F500000000
(1779526293.235110) can0 362#00000000001E0000
(1779526293.235238) can0 363#0000000000000CE4
(1779526293.235360) can0 368#095A000000000000
(1779526293.235483) can0 3EC#0000000000000000
(1779526293.235632) can0 3EE#0000000000000000
(1779526293.235672) can0 470#095A00000000FCFD
(1779526293.235803) can0 471#0015000004050000
(1779526293.235918) can0 6D1#02ED026E64000000
(1779526293.236022) can0 324#0007000800090007
(1779526293.236153) can0 6F6#0000000000000000
(1779526293.236879) can0 6D4#260033B900000000
(1779526293.240197) can0 328#0000000000000000
(1779526293.242587) can0 320#13848D2393880561
(1779526293.245262) can0 3E5#0100000000000000
(1779526293.245393) can0 364#0D90000000000000
(1779526293.245498) can0 369#0000000000000000
(1779526293.245620) can0 36A#0000000000000000
(1779526293.245746) can0 36B#0065000000000000
(1779526293.245871) can0 371#0000000000000000
(1779526293.245997) can0 3EA#0000000000000000
(1779526293.246141) can0 3EB#00000000001E001E
(1779526293.246248) can0 3ED#0000000000000000
(1779526293.246393) can0 3EF#0000000000000000
(1779526293.246498) can0 324#000B000700090005
(1779526293.246681) can0 469#0C78000000000000
(1779526293.246749) can0 6D0#28000000C8000000
(1779526293.248782) can0 328#0000000000000000
(1779526293.252585) can0 320#13858D1E93870560
(1779526293.255812) can0 2B3#100112
(1779526293.255902) can0 2B1#09940000500000A4
(1779526293.256546) can0 324#0009000C00070009
(1779526293.257164) can0 360#0000040400510000
(1779526293.257250) can0 361#041903F500000000
(1779526293.257390) can0 362#00000000001E0000
(1779526293.257496) can0 36C#0000000000000000
(1779526293.257622) can0 36D#0000000000000000
(1779526293.257751) can0 36E#0000000000000000
(1779526293.257875) can0 372#00820000000003F5
(1779526293.258000) can0 3EC#0000000000000000
(1779526293.258134) can0 471#0016000004040000
(1779526293.258240) can0 472#0000000000000000
(1779526293.258388) can0 6F8#00000000000003E8
(1779526293.259059) can0 328#0000000000000000
(1779526293.259170) can0 6D3#6100000700000000
(1779526293.262044) can0 6D4#250033E507EC0000
(1779526293.263716) can0 320#13808D2293840565
(1779526293.265261) can0 324#0009000800090008
(1779526293.268237) can0 3E5#0100000000000000
(1779526293.268388) can0 364#0D90000000000000
(1779526293.268476) can0 36F#0000000000000000
(1779526293.268600) can0 370#0000FFFD00000000
(1779526293.268726) can0 373#0000000000000000
(1779526293.268851) can0 3E6#0000000000000000
(1779526293.268975) can0 3EA#0000000000000000
(1779526293.269100) can0 3EB#00000000001E001E
(1779526293.269226) can0 3ED#0000000000000000
(1779526293.269382) can0 328#0000000000000000
(1779526293.269471) can0 474#0000000000000000
(1779526293.269592) can0 6D0#29000000C8000000
(1779526293.270404) can0 6D0#0203E803E8000000
(1779526293.272676) can0 320#13808D279380055E
(1779526293.275379) can0 324#0009000700080005
(1779526293.277147) can0 6D6#0400336B037F0000
(1779526293.279954) can0 328#0000000000000000
(1779526293.280142) can0 360#0000040300510000
(1779526293.280268) can0 361#041603F500000000
(1779526293.280465) can0 362#00000000001E0000
(1779526293.280478) can0 374#0000000000000000
(1779526293.280656) can0 3E7#0000000400000000
(1779526293.280710) can0 3E8#0000000000000000
(1779526293.280882) can0 3E9#0000000003B70000
(1779526293.280984) can0 3EC#0000000000000000
(1779526293.281086) can0 471#0017000004030000
(1779526293.281200) can0 476#0000000000000000
(1779526293.281316) can0 6D1#254D022300000000
(1779526293.281456) can0 6F4#0000000000000000
(1779526293.283949) can0 320#13878D2093810563
(1779526293.286052) can0 6D3#6200000700000000
(1779526293.286071) can0 324#0008000500080007
(1779526293.286752) can0 6D1#820207D003E80000
(1779526293.288225) can0 328#0000000000000000
(1779526293.289347) can0 6D0#20000000C8000000
(1779526293.292721) can0 320#13838D2393840563
(1779526293.292786) can0 6D4#260033C000000000
(1779526293.293276) can0 3E5#0100000000000000
(1779526293.293407) can0 363#0000000000000CE4
(1779526293.293460) can0 364#0D8E000000000000
(1779526293.293587) can0 368#095A000000000000
(1779526293.293718) can0 375#0000000000000000
(1779526293.293842) can0 3EA#0000000000000000
(1779526293.293958) can0 3EB#00000000001E001E
(1779526293.294071) can0 3ED#0000000000000000
(1779526293.294193) can0 3EE#0000000000000000
(1779526293.294405) can0 470#095A00000000FCFD
(1779526293.296062) can0 324#0009000400090008
(1779526293.298725) can0 328#0000000000000000
(1779526293.303993) can0 320#13848D2493800561
(1779526293.304853) can0 37F#04B3000000000000
(1779526293.305531) can0 324#0008000800090005
(1779526293.305735) can0 70C#05
(1779526293.306288) can0 360#0000040400510000
(1779526293.306447) can0 361#041B03F500000000
(1779526293.306482) can0 362#00000000001E0000
(1779526293.306614) can0 369#0000000000000000
(1779526293.306727) can0 36A#0000000000000000
(1779526293.306860) can0 36B#0065000000000000
(1779526293.306981) can0 376#0000000000000000
(1779526293.307056) can0 2B3#100112
(1779526293.307171) can0 2B1#09940000500000A4
(1779526293.307302) can0 3EC#0000000000000000
(1779526293.307425) can0 3EF#0000000000000000
(1779526293.307550) can0 471#0018000104040000
(1779526293.308152) can0 328#0000000000000000
(1779526293.311008) can0 6D3#6300000700000000
(1779526293.312549) can0 320#13858D2293830561
(1779526293.313052) can0 6D0#2103E800C8000000
(1779526293.315370) can0 6D0#40000003E8000000
(1779526293.317134) can0 324#0007000700080009
(1779526293.317170) can0 6D6#05001980002636B1
(1779526293.319014) can0 328#0000000000000000
(1779526293.319056) can0 6D4#250033FC03610000
(1779526293.319495) can0 3E5#0100000000000000
(1779526293.319586) can0 364#0D90000000000000
(1779526293.319691) can0 36C#0000000000000000
(1779526293.319827) can0 36D#0000000000000000
(1779526293.319948) can0 36E#0000000000000000
(1779526293.320079) can0 3EA#0000000000000000
(1779526293.320179) can0 3EB#00000000001E001E
(1779526293.320404) can0 3ED#0000000000000000
(1779526293.320449) can0 472#0000000000000000
(1779526293.320556) can0 473#0000000000000000
(1779526293.320696) can0 6D1#6001000009C4000C
(1779526293.320847) can0 60B#221710009600
(1779526293.321072) can0 100#000000EF6F000000
(1779526293.321187) can0 100#01FFFFEF00000000
(1779526293.321319) can0 100#0400000000000000
(1779526293.321450) can0 100#0200000000000000
(1779526293.321582) can0 100#0300000000000000
(1779526293.322183) can0 320#13818D2693830568
(1779526293.323989) can0 6D0#03000003E8000000
(1779526293.325039) can0 324#0009000800070007
(1779526293.329546) can0 328#0000000000000000
(1779526293.330341) can0 360#0000040400510000
(1779526293.330417) can0 361#041903F500000000
(1779526293.330454) can0 362#00000000001E0000
(1779526293.330623) can0 36F#0000000000000000
(1779526293.330747) can0 370#0000FFFD00000000
(1779526293.330875) can0 3E6#0000000000000000
(1779526293.331007) can0 3EC#0000000000000000
(1779526293.331140) can0 471#0015000004040000
(1779526293.331259) can0 474#0000000000000000
(1779526293.331451) can0 477#FFFF000000000000
(1779526293.332436) can0 320#13858D2493850561
(1779526293.335173) can0 6D3#8000138800000000
(1779526293.335279) can0 324#0007000500150008
(1779526293.335598) can0 60B#2200180200
(1779526293.337711) can0 6D0#22000000C8000000
(1779526293.339739) can0 328#0000000000000000
(1779526293.341067) can0 3E5#0100000000000000
(1779526293.341128) can0 364#0D90000000000000
(1779526293.341319) can0 3E7#0000000400000000
(1779526293.341447) can0 3E8#0000000000000000
(1779526293.341569) can0 3E9#0000000003B60000
(1779526293.341697) can0 3EA#0000000000000000
(1779526293.341828) can0 3EB#00000000001E001E
(1779526293.341948) can0 3ED#0000000000000000
(1779526293.342073) can0 476#0000000000000000
(1779526293.342196) can0 6D1#26ED021900000000
(1779526293.342323) can0 6F4#0000000000000000
(1779526293.342452) can0 6F7#000001C20D3A0000
(1779526293.342485) can0 320#13878D2093870560
(1779526293.346491) can0 324#0007000700090008
(1779526293.349815) can0 328#0000000000000000
(1779526293.349923) can0 6D4#260033B200000000
(1779526293.350424) can0 60B#220018030000
(1779526293.351712) can0 360#0000040300510000
(1779526293.351821) can0 361#041803F500000000
(1779526293.351927) can0 362#00000000001E0000
(1779526293.352053) can0 363#0000000000000CE4
(1779526293.352188) can0 368#095A000000000000
(1779526293.352293) can0 3E0#0DE30C9300000D7A
(1779526293.352422) can0 3EC#0000000000000000
(1779526293.352553) can0 3EE#0000000000000000
(1779526293.352679) can0 470#095A00000000FCFD
(1779526293.352817) can0 471#0011000004030000
(1779526293.353051) can0 320#13838D2693800565
(1779526293.355980) can0 324#0009000700090005
(1779526293.358238) can0 2B3#100112
(1779526293.358303) can0 2B1#09940000500000A4
(1779526293.358669) can0 328#0000000000000000
(1779526293.360803) can0 6D3#81010D1E00000000
(1779526293.360899) can0 6D5#1001090000000000
(1779526293.361440) can0 3E5#0100000000000000
(1779526293.361554) can0 364#0D83000000000000
(1779526293.361677) can0 369#0000000000000000
(1779526293.361802) can0 36A#0000000000000000
(1779526293.361928) can0 36B#0065000000000000
(1779526293.362063) can0 371#0000000000000000
(1779526293.362189) can0 3E1#0BE5000000000000
(1779526293.362415) can0 3EA#0000000000000000
(1779526293.362434) can0 3EB#00000000001E001E
(1779526293.362549) can0 3ED#0000000000000000
(1779526293.362677) can0 3EF#0000000000000000
(1779526293.362865) can0 6D0#23000000C8000000
(1779526293.363197) can0 320#13818D2693850569
(1779526293.363671) can0 60B#220018050000
(1779526293.367126) can0 324#0009000700070007
(1779526293.368622) can0 6D1#03EB027D7D000000
(1779526293.369577) can0 328#0000000000000000
(1779526293.371715) can0 360#0000040400510000
(1779526293.371745) can0 361#041B03F500000000
(1779526293.371809) can0 362#00000000001E0000
(1779526293.371961) can0 36C#0000000000000000
(1779526293.372086) can0 36D#0000000000000000
(1779526293.372210) can0 36E#0000000000000000
(1779526293.372353) can0 372#00820000000003F5
(1779526293.372406) can0 3E2#02EE0000FFFF0000
(1779526293.372590) can0 3EC#0000000000000000
(1779526293.372706) can0 471#0017000104040000
(1779526293.372839) can0 472#0000000000000000
(1779526293.372968) can0 320#13888D2293850561
(1779526293.373838) can0 6D4#250033DE079A0000
(1779526293.374505) can0 6D0#00000003E8000000
(1779526293.375303) can0 324#0007000700070009
(1779526293.379218) can0 328#0000000000000000
(1779526293.382295) can0 320#13858D2393870560
(1779526293.383120) can0 3E5#0100000000000000
(1779526293.383173) can0 364#0D85000000000000
(1779526293.383348) can0 36F#0000000000000000
(1779526293.383478) can0 370#0000FFFD00000000
(1779526293.383590) can0 373#0000000000000000
(1779526293.383730) can0 3E3#0000000000000000
(1779526293.383845) can0 3E6#0000000000000000
(1779526293.383968) can0 3EA#0000000000000000
(1779526293.384094) can0 3EB#00000000001E001E
(1779526293.384221) can0 3ED#0000000000000000
(1779526293.384350) can0 474#0000000000000000
(1779526293.384488) can0 6D0#24000000C8000000
(1779526293.384812) can0 6D3#8201138500000000
(1779526293.386193) can0 324#0008000900090005
(1779526293.388757) can0 328#0000000000000000
(1779526293.391495) can0 6D1#404B000028000000
(1779526293.392460) can0 320#13858D2393800569
(1779526293.394414) can0 360#0000040300510000
(1779526293.394467) can0 361#041403F500000000
(1779526293.394486) can0 362#00000000001E0000
(1779526293.394661) can0 374#0000000000000000
(1779526293.394792) can0 3E4#0001000000000080
(1779526293.394920) can0 3E7#0000000400000000
(1779526293.394993) can0 3E8#0000000000000000
(1779526293.395115) can0 3E9#0000000003B70000
(1779526293.395245) can0 3EC#0000000000000000
(1779526293.395406) can0 324#0009000900070007
(1779526293.395504) can0 471#0017000004030000
(1779526293.395663) can0 476#0000000000000000
(1779526293.395783) can0 6F4#0000000000000000
(1779526293.397057) can0 6D1#27ED022800000000
(1779526293.401098) can0 328#0000000000000000
(1779526293.401181) can0 6D6#000134313452333E
(1779526293.403439) can0 320#13878D1F93870561
(1779526293.404814) can0 6D4#260033B200000000
(1779526293.404905) can0 324#000B000700070007
(1779526293.405775) can0 3E5#0100000000000000
(1779526293.405902) can0 363#0000000000000CE4
(1779526293.406027) can0 364#0D83000000000000
(1779526293.406136) can0 368#095A000000000000
(1779526293.406262) can0 375#0000000000000000
(1779526293.406390) can0 3EA#0000000000000000
(1779526293.406526) can0 3EB#00000000001E001E
(1779526293.406648) can0 3ED#0000000000000000
(1779526293.406776) can0 3EE#0000000000000000
(1779526293.406876) can0 470#095A00000000FCFD
(1779526293.407018) can0 6D0#2503E800C8000000
(1779526293.407131) can0 6F0#0000000000000000
(1779526293.408534) can0 328#0000000000000000
(1779526293.409406) can0 2B3#100112
(1779526293.409515) can0 2B1#09940000500000A4
(1779526293.410963) can0 6D3#8300055E00000000
(1779526293.412562) can0 320#13878D2393800564
(1779526293.414289) can0 37F#04B2000000000000
(1779526293.416606) can0 360#0000040300510000
(1779526293.416721) can0 361#041B03F500000000
(1779526293.416831) can0 362#00000000001E0000
(1779526293.416944) can0 369#0000000000000000
(1779526293.417031) can0 324#0009000500070007
(1779526293.417164) can0 36A#0000000000000000
(1779526293.417288) can0 36B#0065000000000000
(1779526293.417390) can0 376#0000000000000000
(1779526293.417584) can0 3EC#0000000000000000
(1779526293.417719) can0 3EF#0000000000000000
(1779526293.417772) can0 471#0013000104030000
(1779526293.417898) can0 6D0#41000003E8000000
(1779526293.418020) can0 6F1#0000000000000000
(1779526293.418390) can0 328#0000000000000000
(1779526293.422469) can0 6D1#83000FA00BB80000
(1779526293.422850) can0 320#13878D2293800565
(1779526293.425763) can0 6D0#01000003E8000000
(1779526293.426054) can0 324#00070007000B0007
(1779526293.427980) can0 3E5#0100000000000000
(1779526293.428008) can0 364#0D83000000000000
(1779526293.428056) can0 36C#0000000000000000
(1779526293.428237) can0 36D#0000000000000000
(1779526293.428353) can0 36E#0000000000000000
(1779526293.428487) can0 328#0000000000000000
(1779526293.428607) can0 3EA#0000000000000000
(1779526293.428734) can0 3EB#00000000001E001E
(1779526293.428862) can0 3ED#0000000000000000
(1779526293.428989) can0 472#0000000000000000
(1779526293.429121) can0 473#0000000000000000
(1779526293.429267) can0 6D0#2603E800C8000000
(1779526293.429304) can0 6F2#0000000000000000
(1779526293.432563) can0 6D4#250033DE032E0000
(1779526293.432680) can0 320#13818D2293880560
(1779526293.435625) can0 6D3#6000000800000000
(1779526293.435658) can0 324#0009000700080005
(1779526293.438550) can0 328#0000000000000000
(1779526293.440175) can0 360#0000040300510000
(1779526293.440301) can0 361#041803F500000000
(1779526293.440466) can0 362#00000000001E0000
(1779526293.440494) can0 36F#0000000000000000
(1779526293.440643) can0 370#0000FFFD00000000
(1779526293.440732) can0 3E6#0000000000000000
(1779526293.440844) can0 3EC#0000000000000000
(1779526293.440978) can0 471#001A000104030000
(1779526293.441102) can0 474#0000000000000000
(1779526293.441225) can0 477#FFFF000000000000
(1779526293.441397) can0 6F3#0DA50DA500000000
(1779526293.443407) can0 320#13838D22937F0560
(1779526293.443501) can0 6D6#01005F282DEA01A9
(1779526293.445089) can0 6D1#6101000009C4000C
(1779526293.446198) can0 324#0007000700050009
(1779526293.448603) can0 6D1#28ED021900000000
(1779526293.449107) can0 328#0000000000000000
(1779526293.451309) can0 3E5#0100000000000000
(1779526293.451341) can0 364#0D83000000000000
(1779526293.451476) can0 3E7#0000000400000000
(1779526293.451512) can0 3E8#0000000000000000
(1779526293.451690) can0 3E9#0000000003B60000
(1779526293.451751) can0 3EA#0000000000000000
(1779526293.451932) can0 3EB#00000000001E001E
(1779526293.452065) can0 3ED#0000000000000000
(1779526293.452136) can0 475#0000000000000000
(1779526293.452307) can0 476#0000000000000000
(1779526293.452461) can0 6D0#27000000C8000000
(1779526293.452507) can0 6F4#0000000000000000
(1779526293.452679) can0 6F7#000001C20D3A0000
(1779526293.454037) can0 320#13858D2093830565
(1779526293.455757) can0 70C#05
(1779526293.456579) can0 324#000C000500090005
(1779526293.458408) can0 328#0000000000000000
(1779526293.459696) can0 6D3#6100000700000000
(1779526293.463765) can0 2B3#100112
(1779526293.463873) can0 2B1#09940000500000A4
(1779526293.464428) can0 320#13858D2293850560
(1779526293.464553) can0 6D4#260033C000000000
(1779526293.465941) can0 360#0000040300510000
(1779526293.466051) can0 361#041603F500000000
(1779526293.466168) can0 362#00000000001E0000
(1779526293.466225) can0 363#0000000000000CE4
(1779526293.466472) can0 368#095A000000000000
(1779526293.466499) can0 3EC#0000000000000000
(1779526293.466619) can0 3EE#0000000000000000
(1779526293.466727) can0 470#095A00000000FCFD
(1779526293.466866) can0 471#0014000004030000
(1779526293.466962) can0 6F6#0000000000000000
(1779526293.467097) can0 324#0008000800050009
(1779526293.468837) can0 328#0000000000000000
(1779526293.472665) can0 320#13838D279383055E
(1779526293.475615) can0 3E5#0100000000000000
(1779526293.475734) can0 364#0D83000000000000
(1779526293.475858) can0 369#0000000000000000
(1779526293.475992) can0 36A#0000000000000000
(1779526293.476114) can0 36B#0065000000000000
(1779526293.476220) can0 371#0000000000000000
(1779526293.476391) can0 3EA#0000000000000000
(1779526293.476483) can0 3EB#00000000001E001E
(1779526293.476597) can0 3ED#0000000000000000
(1779526293.476759) can0 3EF#0000000000000000
(1779526293.476865) can0 324#0007000500090005
(1779526293.476974) can0 469#0C7A000000000000
(1779526293.477102) can0 6D0#28000000C8000000
(1779526293.479409) can0 6D0#0203E803E8000000
(1779526293.480050) can0 328#0000000000000000
(1779526293.482505) can0 320#13818D2093850567
(1779526293.485234) can0 6D3#6200000900000000
(1779526293.485266) can0 6D6#02000CDF006B13EA
(1779526293.486319) can0 360#0000040400510000
(1779526293.486364) can0 361#041B03F500000000
(1779526293.486445) can0 362#00000000001E0000
(1779526293.486521) can0 36C#0000000000000000
(1779526293.486701) can0 36D#0000000000000000
(1779526293.486751) can0 36E#0000000000000000
(1779526293.486927) can0 372#00820000000003F5
(1779526293.487028) can0 324#0009000500090007
(1779526293.487182) can0 3EC#0000000000000000
(1779526293.487282) can0 471#0018000104040000
(1779526293.487450) can0 472#0000000000000000
(1779526293.487501) can0 6F8#00000000000003E8
(1779526293.487808) can0 6D4#250033FC086A0000
(1779526293.487932) can0 328#0000000000000000
(1779526293.492832) can0 320#13858D1E93870563
(1779526293.495622) can0 324#0007000400090009
(1779526293.495938) can0 6D1#00ED027D7D0A0000
(1779526293.499819) can0 328#0000000000000000
(1779526293.500539) can0 3E5#0100000000000000
(1779526293.500637) can0 364#0D90000000000000
(1779526293.500788) can0 36F#0000000000000000
(1779526293.500890) can0 370#0000FFFD00000000
(1779526293.501027) can0 373#0000000000000000
(1779526293.501130) can0 3E6#0000000000000000
(1779526293.501254) can0 3EA#0000000000000000
(1779526293.501406) can0 3EB#00000000001E001E
(1779526293.501521) can0 3ED#0000000000000000
(1779526293.501644) can0 474#0000000000000000
(1779526293.501735) can0 6D0#29000000C8000000
(1779526293.502002) can0 320#13848D1F93850561
(1779526293.503476) can0 6D1#29ED021900000000
(1779526293.505016) can0 324#0009000700070007
(1779526293.509002) can0 328#0000000000000000
(1779526293.509108) can0 6D3#6300000800000000
(1779526293.511296) can0 360#0000040500510000
(1779526293.511331) can0 361#041903F500000000
(1779526293.511445) can0 362#00000000001E0000
(1779526293.511550) can0 374#0000000000000000
(1779526293.511649) can0 3E7#0000000400000000
(1779526293.511772) can0 3E8#0000000000000000
(1779526293.511847) can0 2B3#100112
(1779526293.511953) can0 2B1#09940000500000A4
(1779526293.512084) can0 3E9#0000000003B60000
(1779526293.512208) can0 3EC#0000000000000000
(1779526293.512316) can0 320#13878D229385055E
(1779526293.512449) can0 471#0014000104050000
(1779526293.512631) can0 476#0000000000000000
(1779526293.512758) can0 6F4#0000000000000000
(1779526293.515781) can0 324#0008000500090007
(1779526293.518144) can0 6D0#40000003E8000000
(1779526293.519766) can0 328#0000000000000000
(1779526293.519821) can0 6D4#260033CF00000000
(1779526293.521440) can0 3E5#0100000000000000
(1779526293.521602) can0 363#0000000000000CE4
(1779526293.521733) can0 364#0D90000000000000
(1779526293.521842) can0 368#095A000000000000
(1779526293.521973) can0 375#0000000000000000
(1779526293.522100) can0 3EA#0000000000000000
(1779526293.522224) can0 3EB#00000000001E001E
(1779526293.522348) can0 3ED#0000000000000000
(1779526293.522474) can0 3EE#0000000000000000
(1779526293.522607) can0 470#095A00000000FCFD
(1779526293.522703) can0 320#13838D1F93880565
(1779526293.522830) can0 6D0#20000000C8000000
(1779526293.523449) can0 37F#04B2000000000000
(1779526293.526216) can0 324#0008000800070008
(1779526293.528383) can0 6D6#03261F1E1F320014
(1779526293.528423) can0 328#0000000000000000
(1779526293.531229) can0 6D0#03000003E8000000
(1779526293.532461) can0 320#13858D2693850561
(1779526293.534955) can0 360#0000040300510000
(1779526293.534986) can0 361#041903F500000000
(1779526293.535049) can0 362#00000000001E0000
(1779526293.535227) can0 369#0000000000000000
(1779526293.535309) can0 36A#0000000000000000
(1779526293.535464) can0 36B#0065000000000000
(1779526293.535553) can0 376#0000000000000000
(1779526293.535669) can0 3EC#0000000000000000
(1779526293.535788) can0 3EF#0000000000000000
(1779526293.535919) can0 471#0018000104030000
(1779526293.536215) can0 6D3#8000138800000000
(1779526293.536397) can0 324#0009000800070007
(1779526293.538619) can0 328#0000000000000000
(1779526293.542073) can0 320#13888D2293840561
(1779526293.542969) can0 6D0#2103E800C8000000
(1779526293.547418) can0 324#0007000700080009
(1779526293.549265) can0 328#0000000000000000
(1779526293.549390) can0 6D4#25003403045D0000
(1779526293.551140) can0 3E5#0100000000000000
(1779526293.551250) can0 364#0D8E000000000000
(1779526293.551392) can0 36C#0000000000000000
(1779526293.551568) can0 36D#0000000000000000
(1779526293.551698) can0 36E#0000000000000000
(1779526293.551785) can0 3EA#0000000000000000
(1779526293.551892) can0 3EB#00000000001E001E
(1779526293.552019) can0 3ED#0000000000000000
(1779526293.552122) can0 472#0000000000000000
(1779526293.552263) can0 473#0000000000000000
(1779526293.552950) can0 320#13818D1F93840563
(1779526293.555725) can0 324#0009000700080008
(1779526293.556465) can0 6D1#20ED021900000000
(1779526293.559324) can0 328#0000000000000000
(1779526293.559345) can0 6D3#81010D2400000000
(1779526293.561201) can0 6F5#0100000000000000
(1779526293.562205) can0 2B3#100112
(1779526293.562245) can0 2B1#09940000500000A4
(1779526293.563544) can0 320#13878D2293810561
(1779526293.565224) can0 324#0009000700070008
(1779526293.567616) can0 360#0000040300510000
(1779526293.567662) can0 361#041603F500000000
(1779526293.567723) can0 362#00000000001E0000
(1779526293.567903) can0 36F#0000000000000000
(1779526293.568035) can0 370#0000FFFD00000000
(1779526293.568170) can0 3E6#0000000000000000
(1779526293.568213) can0 3EC#0000000000000000
(1779526293.568480) can0 471#0013000104030000
(1779526293.568491) can0 474#0000000000000000
(1779526293.568645) can0 477#FFFF000000000000
(1779526293.568786) can0 6D0#22000000C8000000
(1779526293.569843) can0 328#0000000000000000
(1779526293.569975) can0 6D6#0400336C03800000
(1779526293.571585) can0 6D1#6201000009C4000C
(1779526293.573398) can0 320#13888D1F93850560
(1779526293.575540) can0 324#0009000500090005
(1779526293.577999) can0 3E5#0100000000000000
(1779526293.578111) can0 364#0D85000000000000
(1779526293.578236) can0 3E7#0000000400000000
(1779526293.578398) can0 3E8#0000000000000000
(1779526293.578491) can0 3E9#0000000003B70000
(1779526293.578619) can0 3EA#0000000000000000
(1779526293.578741) can0 3EB#00000000001E001E
(1779526293.578869) can0 3ED#0000000000000000
(1779526293.578980) can0 476#0000000000000000
(1779526293.579098) can0 6F4#0000000000000000
(1779526293.579229) can0 6F7#000001C20D3A0000
(1779526293.579879) can0 328#0000000000000000
(1779526293.580010) can0 6D4#2600339B00000000
(1779526293.582439) can0 6D0#00000003E8000000
(1779526293.583779) can0 320#13848D2093880563
(1779526293.584399) can0 6D3#8201138300000000
(1779526293.586122) can0 324#0007000500070009
(1779526293.588210) can0 360#0000040300510000
(1779526293.588253) can0 361#041D03F500000000
(1779526293.588457) can0 362#00000000001E0000
(1779526293.588553) can0 363#0000000000000CE4
(1779526293.588644) can0 368#095A000000000000
(1779526293.588734) can0 3E0#0DE30C9300000D7A
(1779526293.588884) can0 3EC#0000000000000000
(1779526293.588990) can0 3EE#0000000000000000
(1779526293.589114) can0 470#095A00000000FCFD
(1779526293.589245) can0 471#001A000004030000
(1779526293.589397) can0 6D0#23000000C8000000
(1779526293.590617) can0 328#0000000000000000
(1779526293.592275) can0 320#13848D24937F0565
(1779526293.595835) can0 324#0008000C00090008
(1779526293.599194) can0 328#0000000000000000
(1779526293.602618) can0 3E5#0100000000000000
(1779526293.602703) can0 364#0D83000000000000
(1779526293.602852) can0 369#0000000000000000
(1779526293.602970) can0 36A#0000000000000000
(1779526293.603093) can0 36B#0065000000000000
(1779526293.603194) can0 320#13888D1F93850561
(1779526293.603386) can0 371#0000000000000000
(1779526293.603457) can0 3E1#0BE5000000000000
(1779526293.603582) can0 3EA#0000000000000000
(1779526293.603703) can0 3EB#00000000001E001E
(1779526293.603844) can0 3ED#0000000000000000
(1779526293.603961) can0 3EF#0000000000000000
(1779526293.604848) can0 6D4#250033DE08620000
(1779526293.604989) can0 324#0007000800090008
(1779526293.605652) can0 70C#05
(1779526293.608403) can0 6D1#21ED022300000000
(1779526293.609020) can0 328#0000000000000000
(1779526293.609134) can0 6D3#8300055E00000000
(1779526293.612920) can0 360#0000040300510000
(1779526293.613062) can0 361#041903F500000000
(1779526293.613139) can0 362#00000000001E0000
(1779526293.613296) can0 36C#0000000000000000
(1779526293.613413) can0 36D#0000000000000000
(1779526293.613525) can0 320#13838D2293840560
(1779526293.613668) can0 36E#0000000000000000
(1779526293.613774) can0 372#00820000000003F5
(1779526293.613882) can0 3E2#02EE0000FFFF0000
(1779526293.614035) can0 3EC#0000000000000000
(1779526293.614137) can0 471#001A000004030000
(1779526293.614221) can0 2B3#100112
(1779526293.614392) can0 2B1#09940000500000A4
(1779526293.614476) can0 472#0000000000000000
(1779526293.614592) can0 6D0#24000000C8000000
(1779526293.614709) can0 6D6#05001980002636B1
(1779526293.616959) can0 324#0009000700070007
(1779526293.618411) can0 328#0000000000000000
(1779526293.619154) can0 6D0#41000003E8000000
(1779526293.623188) can0 3E5#0100000000000000
(1779526293.623303) can0 364#0D83000000000000
(1779526293.623418) can0 36F#0000000000000000
(1779526293.623538) can0 370#0000FFFD00000000
(1779526293.623686) can0 373#0000000000000000
(1779526293.623801) can0 3E3#0000000000000000
(1779526293.623933) can0 3E6#0000000000000000
(1779526293.624039) can0 320#13848D24937F0563
(1779526293.624168) can0 3EA#0000000000000000
(1779526293.624294) can0 3EB#00000000001E001E
(1779526293.624416) can0 3ED#0000000000000000
(1779526293.624557) can0 474#0000000000000000
(1779526293.624660) can0 6D1#01ED027D7D000000
(1779526293.625552) can0 324#0008000700070009
(1779526293.629548) can0 328#0000000000000000
(1779526293.631027) can0 37F#04B2000000000000
(1779526293.632783) can0 320#13888D2093840563
(1779526293.633668) can0 360#0000040300520000
(1779526293.633728) can0 361#041203F500000000
(1779526293.633853) can0 362#00000000001E0000
(1779526293.633978) can0 374#0000000000000000
(1779526293.634110) can0 3E4#0001000000000080
(1779526293.634233) can0 3E7#0000000400000000
(1779526293.634403) can0 3E8#0000000000000000
(1779526293.634496) can0 3E9#0000000003B70000
(1779526293.634620) can0 3EC#0000000000000000
(1779526293.634720) can0 471#0016000004030000
(1779526293.634848) can0 476#0000000000000000
(1779526293.634978) can0 6D0#01000003E8000000
(1779526293.635102) can0 6F4#0000000000000000
(1779526293.636857) can0 324#0007000800070007
(1779526293.636922) can0 6D3#6000000900000000
(1779526293.636931) can0 6D4#2600339400000000
(1779526293.637971) can0 6D0#2503E800C8000000
(1779526293.638666) can0 328#0000000000000000
(1779526293.642810) can0 320#13858D239385055C
(1779526293.643696) can0 3E5#0100000000000000
(1779526293.643749) can0 363#0000000000000CE4
(1779526293.643856) can0 364#0D83000000000000
(1779526293.643987) can0 368#095A000000000000
(1779526293.644115) can0 375#0000000000000000
(1779526293.644241) can0 3EA#0000000000000000
(1779526293.644392) can0 3EB#00000000001E001E
(1779526293.644494) can0 3ED#0000000000000000
(1779526293.644604) can0 3EE#0000000000000000
(1779526293.644729) can0 470#095A00000000FCFD
(1779526293.644900) can0 6F0#0000000000000000
(1779526293.645488) can0 324#0007000500080009
(1779526293.646807) can0 6D1#414B000028000000
(1779526293.648174) can0 328#0000000000000000
(1779526293.653340) can0 320#13848D2493870563
(1779526293.653481) can0 6D5#1001090000000000
(1779526293.653740) can0 360#0000040300510000
(1779526293.653864) can0 361#041903F500000000
(1779526293.653968) can0 362#00000000001E0000
(1779526293.654093) can0 369#0000000000000000
(1779526293.654228) can0 36A#0000000000000000
(1779526293.654406) can0 36B#0065000000000000
(1779526293.654452) can0 376#0000000000000000
(1779526293.654593) can0 3EC#0000000000000000
(1779526293.654718) can0 3EF#0000000000000000
(1779526293.654839) can0 471#0018000004030000
(1779526293.654973) can0 6F1#0000000000000000
(1779526293.655970) can0 6D4#2500340A04220000
(1779526293.656087) can0 324#0008000500090008
(1779526293.658066) can0 6D0#2603E800C8000000
(1779526293.658504) can0 328#0000000000000000
(1779526293.659680) can0 6D3#6100000700000000
(1779526293.660424) can0 6D1#22ED022300000000
(1779526293.663805) can0 320#13848D2093840561
(1779526293.664406) can0 3E5#0100000000000000
(1779526293.664449) can0 364#0D83000000000000
(1779526293.664590) can0 36C#0000000000000000
(1779526293.664716) can0 36D#0000000000000000
(1779526293.664835) can0 36E#0000000000000000
(1779526293.664950) can0 3EA#0000000000000000
(1779526293.665075) can0 3EB#00000000001E001E
(1779526293.665180) can0 3ED#0000000000000000
(1779526293.665316) can0 472#0000000000000000
(1779526293.665393) can0 2B3#100112
(1779526293.665500) can0 2B1#09940000500000A4
(1779526293.665692) can0 473#0000000000000000
(1779526293.665803) can0 6F2#0000000000000000
(1779526293.665933) can0 324#0007000500080005
(1779526293.669105) can0 328#0000000000000000
(1779526293.673325) can0 320#13808D1F9387055E
(1779526293.674143) can0 360#0000040300510000
(1779526293.674249) can0 361#041803F500000000
(1779526293.674393) can0 362#00000000001E0000
(1779526293.674563) can0 36F#0000000000000000
(1779526293.674606) can0 370#0000FFFD00000000
(1779526293.674796) can0 3E6#0000000000000000
(1779526293.674871) can0 3EC#0000000000000000
(1779526293.675048) can0 471#0011000004030000
(1779526293.675190) can0 474#0000000000000000
(1779526293.675229) can0 477#FFFF000000000000
(1779526293.675450) can0 6F3#0DA50DA500000000
(1779526293.675825) can0 324#000B000800010007
(1779526293.677832) can0 6D1#810207D003E80000
(1779526293.679104) can0 328#0000000000000000
(1779526293.680472) can0 6D0#27000000C8000000
(1779526293.683825) can0 320#13848D2693810565
(1779526293.684510) can0 3E5#0100000000000000
(1779526293.684672) can0 364#0D83000000000000
(1779526293.684744) can0 3E7#0000000400000000
(1779526293.684926) can0 3E8#0000000000000000
(1779526293.685006) can0 3E9#0000000003B70000
(1779526293.685162) can0 3EA#0000000000000000
(1779526293.685238) can0 3EB#00000000001E001E
(1779526293.685467) can0 3ED#0000000000000000
(1779526293.685557) can0 475#0000000000000000
(1779526293.685637) can0 476#0000000000000000
(1779526293.685788) can0 6D0#0203E803E8000000
(1779526293.685911) can0 6F4#0000000000000000
(1779526293.686041) can0 324#0008000700080008
(1779526293.686178) can0 6D3#6200000800000000
(1779526293.686234) can0 6F7#000001C20D3A0000
(1779526293.687823) can0 6D4#260033C800000000
(1779526293.689529) can0 328#0000000000000000
(1779526293.693098) can0 320#13888D2093850560
(1779526293.694498) can0 360#0000040300510000
(1779526293.694614) can0 361#041B03F500000000
(1779526293.694740) can0 362#00000000001E0000
(1779526293.694862) can0 363#0000000000000CE4
(1779526293.694976) can0 368#095A000000000000
(1779526293.695097) can0 3EC#0000000000000000
(1779526293.695235) can0 3EE#0000000000000000
(1779526293.695348) can0 470#095A00000000FCFD
(1779526293.695483) can0 471#0011000004030000
(1779526293.695613) can0 6F6#0000000000000000
(1779526293.695933) can0 324#0008000500070007
(1779526293.696054) can0 6D6#0001343134543343
(1779526293.698105) can0 328#0000000000000000
(1779526293.700987) can0 6D1#6301000009C4000C
(1779526293.704461) can0 320#13848D2293880561
(1779526293.704783) can0 6D0#28000000C8000000
(1779526293.705371) can0 3E5#0100000000000000
(1779526293.705432) can0 364#0D83000000000000
(1779526293.705606) can0 369#0000000000000000
(1779526293.705689) can0 36A#0000000000000000
(1779526293.705794) can0 36B#0065000000000000
(1779526293.705935) can0 371#0000000000000000
(1779526293.706058) can0 3EA#0000000000000000
(1779526293.706168) can0 3EB#00000000001E001E
(1779526293.706294) can0 3ED#0000000000000000
(1779526293.706426) can0 3EF#0000000000000000
(1779526293.706557) can0 469#0C7A000000000000
(1779526293.706663) can0 324#0005000700070007
(1779526293.708088) can0 328#0000000000000000
(1779526293.709938) can0 6D3#6300000500000000
(1779526293.711098) can0 6D1#23ED021900000000
(1779526293.712265) can0 320#13858D24937F0567
(1779526293.715660) can0 360#0000040300510000
(1779526293.715753) can0 361#041903F500000000
(1779526293.715771) can0 362#00000000001E0000
(1779526293.715886) can0 36C#0000000000000000
(1779526293.715991) can0 36D#0000000000000000
(1779526293.716129) can0 36E#0000000000000000
(1779526293.716245) can0 372#00820000000003F5
(1779526293.716407) can0 3EC#0000000000000000
(1779526293.716512) can0 471#0018000104030000
(1779526293.716609) can0 472#0000000000000000
(1779526293.716690) can0 2B3#100112
(1779526293.716872) can0 2B1#09940000500000A4
(1779526293.716946) can0 6F8#00000000000003E8
(1779526293.717408) can0 324#0008000900090007
(1779526293.717496) can0 6D4#2700007600000000
(1779526293.719529) can0 328#0000000000000000
(1779526293.721693) can0 6D0#40000003E8000000
(1779526293.722409) can0 320#13888D2093830568
(1779526293.725932) can0 324#0009000500090007
(1779526293.727502) can0 6D4#250033DE086A0000
(1779526293.728923) can0 3E5#0100000000000000
(1779526293.729006) can0 364#0D83000000000000
(1779526293.729129) can0 36F#0000000000000000
(1779526293.729229) can0 370#0000FFFD00000000
(1779526293.729391) can0 373#0000000000000000
(1779526293.729542) can0 3E6#0000000000000000
(1779526293.729680) can0 3EA#0000000000000000
(1779526293.729732) can0 3EB#00000000001E001E
(1779526293.729880) can0 3ED#0000000000000000
(1779526293.729985) can0 474#0000000000000000
(1779526293.730114) can0 6D0#29000000C8000000
(1779526293.730245) can0 328#0000000000000000
(1779526293.730574) can0 60D#221710009600
(1779526293.732516) can0 320#13838D229388055C
(1779526293.734969) can0 6D3#8000138100000000
(1779526293.735077) can0 6D0#03000003E8000000
(1779526293.737119) can0 324#0008000700090007
(1779526293.739244) can0 6D6#01005F292DEA01AF
(1779526293.739272) can0 328#0000000000000000
(1779526293.739669) can0 360#0000040300510000
(1779526293.739770) can0 361#041403F500000000
(1779526293.739952) can0 362#00000000001E0000
(1779526293.740025) can0 374#0000000000000000
(1779526293.740147) can0 3E7#0000000400000000
(1779526293.740287) can0 3E8#0000000000000000
(1779526293.740399) can0 3E9#0000000003B70000
(1779526293.740593) can0 3EC#0000000000000000
(1779526293.740658) can0 471#0011000004030000
(1779526293.740790) can0 476#0000000000000000
(1779526293.740895) can0 6F4#0000000000000000
(1779526293.741314) can0 37F#04B2000000000000
(1779526293.743014) can0 320#13858D2793840560
(1779526293.744316) can0 60D#2200180200
(1779526293.745905) can0 324#0007000700090009
(1779526293.749110) can0 328#0000000000000000
(1779526293.752079) can0 3E5#0100000000000000
(1779526293.752152) can0 363#0000000000000CE4
(1779526293.752282) can0 364#0D8E000000000000
(1779526293.752392) can0 368#095A000000000000
(1779526293.752522) can0 375#0000000000000000
(1779526293.752649) can0 3EA#0000000000000000
(1779526293.752774) can0 3EB#00000000001E001E
(1779526293.752899) can0 3ED#0000000000000000
(1779526293.753024) can0 320#13888D1F93830565
(1779526293.753149) can0 3EE#0000000000000000
(1779526293.753343) can0 470#095A00000000FCFD
(1779526293.753713) can0 6D0#20000000C8000000
(1779526293.755730) can0 70C#05
(1779526293.756011) can0 324#0008000500090007
(1779526293.756639) can0 60D#220018030000
(1779526293.758202) can0 6D4#260033B900000000
(1779526293.758479) can0 328#0000000000000000
(1779526293.758736) can0 6D1#02ED026E64000000
(1779526293.759649) can0 6D3#81010D2400000000
(1779526293.763249) can0 320#13838D2093880561
(1779526293.763742) can0 6D1#24ED021900000000
(1779526293.766371) can0 324#000C000700070007
(1779526293.767411) can0 360#0000040300500000
(1779526293.767484) can0 361#041603F500000000
(1779526293.767566) can0 362#00000000001E0000
(1779526293.767690) can0 369#0000000000000000
(1779526293.767815) can0 36A#0000000000000000
(1779526293.767889) can0 2B3#100112
(1779526293.768014) can0 2B1#09940000500000A3
(1779526293.768139) can0 36B#0065000000000000
(1779526293.768270) can0 376#0000000000000000
(1779526293.768409) can0 3EC#0000000000000000
(1779526293.768658) can0 3EF#0000000000000000
(1779526293.768683) can0 471#0015000004030000
(1779526293.769301) can0 328#0000000000000000
(1779526293.770170) can0 60D#220018050000
(1779526293.773200) can0 320#13858D1E93850561
(1779526293.774582) can0 6D0#2103E800C8000000
(1779526293.775878) can0 324#0009000500080007
(1779526293.775934) can0 6D4#250033DE03EE0000
(1779526293.777476) can0 3E5#0100000000000000
(1779526293.777489) can0 364#0D83000000000000
(1779526293.777627) can0 36C#0000000000000000
(1779526293.777762) can0 36D#0000000000000000
(1779526293.777843) can0 36E#0000000000000000
(1779526293.778003) can0 3EA#0000000000000000
(1779526293.778079) can0 3EB#00000000001E001E
(1779526293.778207) can0 3ED#0000000000000000
(1779526293.778395) can0 472#0000000000000000
(1779526293.778452) can0 473#0000000000000000
(1779526293.780737) can0 328#0000000000000000
(1779526293.780851) can0 6D6#02000CDF006B13EA
(1779526293.782195) can0 320#13858D2393840565
(1779526293.785557) can0 6D3#8201138800000000
(1779526293.785599) can0 324#0003000500070008
(1779526293.788624) can0 328#0000000000000000
(1779526293.791165) can0 360#0000040300510000
(1779526293.791266) can0 361#041603F500000000
(1779526293.791399) can0 362#00000000001E0000
(1779526293.791529) can0 36F#0000000000000000
(1779526293.791677) can0 370#0000FFFD00000000
(1779526293.791847) can0 3E6#0000000000000000
(1779526293.791898) can0 3EC#0000000000000000
(1779526293.792044) can0 471#0011000004030000
(1779526293.792161) can0 320#13838D2293830561
(1779526293.792258) can0 474#0000000000000000
(1779526293.792399) can0 477#FFFF000000000000
(1779526293.792504) can0 6D0#00000003E8000000
(1779526293.795294) can0 324#0009000800070001
(1779526293.798218) can0 6D0#22000000C8000000
(1779526293.798737) can0 328#0000000000000000
(1779526293.801410) can0 3E5#0100000000000000
(1779526293.801536) can0 364#0D83000000000000
(1779526293.801657) can0 3E7#0000000400000000
(1779526293.801799) can0 3E8#0000000000000000
(1779526293.801913) can0 3E9#0000000003B70000
(1779526293.802019) can0 3EA#0000000000000000
(1779526293.802150) can0 3EB#00000000001E001E
(1779526293.802267) can0 320#13808D2793870564
(1779526293.802395) can0 3ED#0000000000000000
(1779526293.802544) can0 476#0000000000000000
(1779526293.802651) can0 6F4#0000000000000000
(1779526293.802769) can0 6F7#000001C20D3A0000
(1779526293.805069) can0 6D1#820207D003E80000
(1779526293.805998) can0 324#0004000800080008
(1779526293.807666) can0 6D4#260033B200000000
(1779526293.809405) can0 328#0000000000000000
(1779526293.809491) can0 6D3#8300056100000000
(1779526293.813200) can0 320#13878D1F93870563
(1779526293.815010) can0 360#0000040300510000
(1779526293.815051) can0 361#041D03F500000000
(1779526293.815172) can0 362#00000000001E0000
(1779526293.815288) can0 363#0000000000000CE4
(1779526293.815485) can0 368#095A000000000000
(1779526293.815508) can0 3E0#0DE30C9300000D7A
(1779526293.815581) can0 324#0008000800070008
(1779526293.815704) can0 3EC#0000000000000000
(1779526293.815863) can0 3EE#0000000000000000
(1779526293.815958) can0 470#095A00000000FCFD
(1779526293.816084) can0 471#0016000004030000
(1779526293.816209) can0 6D1#254D022300000000
(1779526293.819129) can0 2B3#100112
(1779526293.819158) can0 2B1#09940000500000A4
(1779526293.819289) can0 328#0000000000000000
(1779526293.822559) can0 6D0#23000000C8000000
(1779526293.823566) can0 6D6#03261E1F1F320005
(1779526293.823594) can0 320#13878D2293800563
(1779526293.825842) can0 3E5#0100000000000000
(1779526293.825886) can0 364#0D83000000000000
(1779526293.825945) can0 369#0000000000000000
(1779526293.826105) can0 36A#0000000000000000
(1779526293.826234) can0 36B#0065000000000000
(1779526293.826361) can0 324#0008000700090007
(1779526293.826493) can0 371#0000000000000000
(1779526293.826613) can0 3E1#0BE4000000000000
(1779526293.826741) can0 3EA#0000000000000000
(1779526293.826871) can0 3EB#00000000001E001E
(1779526293.826999) can0 3ED#0000000000000000
(1779526293.827127) can0 3EF#0000000000000000
(1779526293.828291) can0 6D0#41000003E8000000
(1779526293.829133) can0 328#0000000000000000
(1779526293.830471) can0 6D4#250033CF07E40000
(1779526293.830626) can0 6D1#6001000009C4000C
(1779526293.834792) can0 320#13848D2793830565
(1779526293.834905) can0 6D3#6000000700000000
(1779526293.836590) can0 324#0009000400070007
(1779526293.838212) can0 328#0000000000000000
(1779526293.841186) can0 360#0000040300510000
(1779526293.841313) can0 361#041603F500000000
(1779526293.841494) can0 362#00000000001E0000
(1779526293.841517) can0 36C#0000000000000000
(1779526293.841658) can0 36D#0000000000000000
(1779526293.841803) can0 36E#0000000000000000
(1779526293.841928) can0 372#00820000000003F5
(1779526293.842003) can0 3E2#02EE0000FFFF0000
(1779526293.842117) can0 3EC#0000000000000000
(1779526293.842248) can0 471#0018000104030000
(1779526293.842399) can0 472#0000000000000000
(1779526293.842496) can0 320#13878D1E9385056B
(1779526293.843408) can0 6D0#24000000C8000000
(1779526293.845416) can0 37F#04B3000000000000
(1779526293.846196) can0 324#0007000B0008000B
(1779526293.847669) can0 6D0#01000003E8000000
(1779526293.848447) can0 328#0000000000000000
(1779526293.853064) can0 320#13888D2393870565
(1779526293.854254) can0 3E5#0100000000000000
(1779526293.854338) can0 364#0D83000000000000
(1779526293.854409) can0 36F#0000000000000000
(1779526293.854503) can0 370#0000FFFD00000000
(1779526293.854613) can0 373#0000000000000000
(1779526293.854744) can0 3E3#0000000000000000
(1779526293.854869) can0 3E6#0000000000000000
(1779526293.854990) can0 3EA#0000000000000000
(1779526293.855114) can0 3EB#00000000001E001E
(1779526293.855239) can0 3ED#0000000000000000
(1779526293.855408) can0 474#0000000000000000
(1779526293.856408) can0 324#0007000400080005
(1779526293.858513) can0 328#0000000000000000
(1779526293.861104) can0 6D3#6100000400000000
(1779526293.862935) can0 6D4#260033B200000000
(1779526293.863016) can0 320#13848D2493830561
(1779526293.864743) can0 6D6#0400336B03800000
(1779526293.866253) can0 324#00050008000B0007
(1779526293.867831) can0 360#0000040300510000
(1779526293.867878) can0 361#041F03F500000000
(1779526293.867942) can0 362#00000000001E0000
(1779526293.868042) can0 374#0000000000000000
(1779526293.868171) can0 3E4#0001000000000080
(1779526293.868296) can0 3E7#0000000400000000
(1779526293.868439) can0 3E8#0000000000000000
(1779526293.868539) can0 3E9#0000000003B70000
(1779526293.868663) can0 3EC#0000000000000000
(1779526293.868870) can0 328#0000000000000000
(1779526293.868933) can0 471#0015000104030000
(1779526293.869037) can0 476#0000000000000000
(1779526293.869171) can0 6D0#2503E800C8000000
(1779526293.869302) can0 6F4#0000000000000000
(1779526293.870191) can0 2B3#100112
(1779526293.870284) can0 2B1#09940000500000A4
(1779526293.871213) can0 6D1#26ED021900000000
(1779526293.871890) can0 320#13888D2293850561
(1779526293.875599) can0 324#0007000700070007
(1779526293.878667) can0 3E5#0100000000000000
(1779526293.878785) can0 363#0000000000000CE4
(1779526293.878936) can0 364#0D83000000000000
(1779526293.879029) can0 368#095A000000000000
(1779526293.879143) can0 375#0000000000000000
(1779526293.879273) can0 3EA#0000000000000000
(1779526293.879397) can0 3EB#00000000001E001E
(1779526293.879531) can0 3ED#0000000000000000
(1779526293.879652) can0 3EE#0000000000000000
(1779526293.879776) can0 470#095A00000000FCFD
(1779526293.879880) can0 6F0#0000000000000000
(1779526293.880012) can0 328#0000000000000000
(1779526293.882224) can0 320#13858D2393850567
(1779526293.883855) can0 6D3#6200000900000000
(1779526293.884612) can0 6D1#03EB027D7D000000
(1779526293.885408) can0 324#0009000700070007
(1779526293.889990) can0 328#0000000000000000
(1779526293.892148) can0 360#0000040500510000
(1779526293.892254) can0 361#041803F500000000
(1779526293.892398) can0 362#00000000001E0000
(1779526293.892503) can0 369#0000000000000000
(1779526293.892628) can0 36A#0000000000000000
(1779526293.892725) can0 36B#0065000000000000
(1779526293.892888) can0 376#0000000000000000
(1779526293.893001) can0 320#13888D2293830561
(1779526293.893109) can0 3EC#0000000000000000
(1779526293.893246) can0 3EF#0000000000000000
(1779526293.893399) can0 471#0015000104050000
(1779526293.893500) can0 6D0#2603E800C8000000
(1779526293.893628) can0 6F1#0000000000000000
(1779526293.894624) can0 6D4#2700006700000000
(1779526293.896206) can0 324#000B000F00090005
(1779526293.898730) can0 6D0#0203E803E8000000
(1779526293.899756) can0 328#0000000000000000
(1779526293.901196) can0 6D1#404B000028000000
(1779526293.902826) can0 320#13838D249388055E
(1779526293.905903) can0 70C#05
(1779526293.906091) can0 324#0007000700090007
(1779526293.906141) can0 6D6#05001980002636B1
(1779526293.906866) can0 3E5#0100000000000000
(1779526293.906912) can0 364#0D90000000000000
(1779526293.906974) can0 36C#0000000000000000
(1779526293.907151) can0 36D#0000000000000000
(1779526293.907216) can0 36E#0000000000000000
(1779526293.907394) can0 3EA#0000000000000000
(1779526293.907534) can0 3EB#00000000001E001E
(1779526293.907572) can0 3ED#0000000000000000
(1779526293.907753) can0 472#0000000000000000
(1779526293.907892) can0 473#0000000000000000
(1779526293.907961) can0 6F2#0000000000000000
(1779526293.909274) can0 328#0000000000000000
(1779526293.909400) can0 6D3#6300000700000000
(1779526293.912718) can0 320#13808D23937F0565
(1779526293.913591) can0 6D0#27000000C8000000
(1779526293.916582) can0 324#0009000500090008
(1779526293.917194) can0 360#0000040400510000
(1779526293.917316) can0 361#041B03F500000000
(1779526293.917454) can0 362#00000000001E0000
(1779526293.917503) can0 36F#0000000000000000
(1779526293.917637) can0 370#0000FFFD00000000
(1779526293.917732) can0 3E6#0000000000000000
(1779526293.917882) can0 3EC#0000000000000000
(1779526293.917990) can0 471#0016000104040000
(1779526293.918141) can0 474#0000000000000000
(1779526293.918236) can0 477#FFFF000000000000
(1779526293.918408) can0 6F3#0DA50DA500000000
(1779526293.919711) can0 328#0000000000000000
(1779526293.922375) can0 320#13858D2393800561
(1779526293.922561) can0 2B3#100112
(1779526293.922601) can0 2B1#09940000500000A4
(1779526293.923496) can0 6D4#2800000000000000
(1779526293.924187) can0 6D1#27ED022800000000
(1779526293.926754) can0 324#000B000900070007
(1779526293.927298) can0 3E5#0100000000000000
(1779526293.927430) can0 364#0D8E000000000000
(1779526293.927609) can0 3E7#0000000400000000
(1779526293.927742) can0 3E8#0000000000000000
(1779526293.927870) can0 3E9#0000000003B60000
(1779526293.927992) can0 3EA#0000000000000000
(1779526293.928116) can0 3EB#00000000001E001E
(1779526293.928243) can0 3ED#0000000000000000
(1779526293.928365) can0 328#0000000000000000
(1779526293.928492) can0 475#0000000000000000
(1779526293.928617) can0 476#0000000000000000
(1779526293.928685) can0 6F4#0000000000000000
(1779526293.928846) can0 6F7#000001C20D3A0000
(1779526293.932145) can0 6D0#40000003E8000000
(1779526293.932654) can0 320#13888D209388055E
(1779526293.933027) can0 60A#221710009600
(1779526293.934743) can0 6D0#28000000C8000000
(1779526293.935045) can0 6D3#8000138500000000
(1779526293.937399) can0 324#0009000700090007
(1779526293.937812) can0 360#0000040300510000
(1779526293.937925) can0 361#041B03F500000000
(1779526293.938056) can0 362#00000000001E0000
(1779526293.938183) can0 363#0000000000000CE4
(1779526293.938287) can0 368#095A000000000000
(1779526293.938426) can0 3EC#0000000000000000
(1779526293.938578) can0 3EE#0000000000000000
(1779526293.938662) can0 470#095A00000000FCFD
(1779526293.938786) can0 471#0016000104030000
(1779526293.938911) can0 328#0000000000000000
(1779526293.939043) can0 6D1#83000FA00BB80000
(1779526293.939167) can0 6F6#0000000000000000
(1779526293.943293) can0 320#13848D2493830565
(1779526293.945766) can0 324#0008000800080007
(1779526293.947435) can0 60A#2200180200
(1779526293.947849) can0 6D5#1001090000000000
(1779526293.947972) can0 328#0000000000000000
(1779526293.948276) can0 3E5#0100000000000000
(1779526293.948392) can0 364#0D83000000000000
(1779526293.948524) can0 369#0000000000000000
(1779526293.948650) can0 36A#0000000000000000
(1779526293.948774) can0 36B#0065000000000000
(1779526293.948900) can0 371#0000000000000000
(1779526293.949025) can0 3EA#0000000000000000
(1779526293.949150) can0 3EB#00000000001E001E
(1779526293.949275) can0 3ED#0000000000000000
(1779526293.949393) can0 3EF#0000000000000000
(1779526293.949526) can0 469#0C7A000000000000
(1779526293.952347) can0 6D0#03000003E8000000
(1779526293.953478) can0 320#13888D1C93830567
(1779526293.955243) can0 6D0#29000000C8000000
(1779526293.955605) can0 6D4#2900000700000000
(1779526293.955735) can0 324#000B0009000F0007
(1779526293.957714) can0 37F#04B3000000000000
(1779526293.958543) can0 328#0000000000000000
(1779526293.958949) can0 360#0000040400510000
(1779526293.959088) can0 361#041803F500000000
(1779526293.959144) can0 362#00000000001E0000
(1779526293.959313) can0 36C#0000000000000000
(1779526293.959454) can0 36D#0000000000000000
(1779526293.959523) can0 36E#0000000000000000
(1779526293.959682) can0 372#00820000000003F5
(1779526293.959809) can0 3EC#0000000000000000
(1779526293.959938) can0 471#001A000104040000
(1779526293.960064) can0 472#0000000000000000
(1779526293.960175) can0 6D1#6101000009C4000C
(1779526293.960298) can0 6D3#81010D2000000000
(1779526293.960448) can0 6F8#00000000000003E8
(1779526293.960591) can0 60A#220018030000
(1779526293.961086) can0 6D4#250033CF03E60000
(1779526293.964097) can0 320#13858D2093850560
(1779526293.966001) can0 324#0009000500090007
(1779526293.969199) can0 3E5#0100000000000000
(1779526293.969265) can0 364#0D90000000000000
(1779526293.969399) can0 36F#0000000000000000
(1779526293.969546) can0 370#0000FFFD00000000
(1779526293.969640) can0 373#0000000000000000
(1779526293.969755) can0 3E6#0000000000000000
(1779526293.969905) can0 3EA#0000000000000000
(1779526293.970021) can0 328#0000000000000000
(1779526293.970142) can0 3EB#00000000001E001E
(1779526293.970268) can0 3ED#0000000000000000
(1779526293.970399) can0 474#0000000000000000
(1779526293.972582) can0 2B3#100112
(1779526293.972679) can0 2B1#09940000500000A4
(1779526293.973704) can0 320#13888D2393800561
(1779526293.974618) can0 60A#220018050000
(1779526293.975293) can0 324#0008000800070008
(1779526293.975587) can0 6D1#28ED021900000000
(1779526293.978560) can0 328#0000000000000000
(1779526293.979020) can0 6D0#20000000C8000000
(1779526293.979864) can0 360#0000040500510000
(1779526293.979895) can0 361#041D03F500000000
(1779526293.979961) can0 362#00000000001E0000
(1779526293.980121) can0 374#0000000000000000
(1779526293.980252) can0 3E7#0000000400000000
(1779526293.980390) can0 3E8#0000000000000000
(1779526293.980459) can0 3E9#0000000003B60000
(1779526293.980568) can0 3EC#0000000000000000
(1779526293.980691) can0 471#0014000104050000
(1779526293.980815) can0 476#0000000000000000
(1779526293.980932) can0 6F4#0000000000000000
(1779526293.982957) can0 320#13838D2093830567
(1779526293.984941) can0 6D3#8201138800000000
(1779526293.986719) can0 324#0008000700090005
(1779526293.989045) can0 328#0000000000000000
(1779526293.989158) can0 6D6#000134313454333E
(1779526293.992659) can0 3E5#0100000000000000
(1779526293.992751) can0 363#0000000000000CE4
(1779526293.992858) can0 364#0D90000000000000
(1779526293.993000) can0 368#095A000000000000
(1779526293.993108) can0 375#0000000000000000
(1779526293.993231) can0 3EA#0000000000000000
(1779526293.993393) can0 3EB#00000000001E001E
(1779526293.993550) can0 3ED#0000000000000000
(1779526293.993631) can0 3EE#0000000000000000
(1779526293.993773) can0 320#13858D2093810561
(1779526293.993857) can0 470#095A00000000FCFD
(1779526293.993963) can0 6D4#260033AA00000000
(1779526293.997192) can0 324#0008000800090009
(1779526293.998759) can0 328#0000000000000000
(1779526293.999471) can0 6D0#2103E800C8000000
(1779526294.003537) can0 360#0000040400510000
(1779526294.003614) can0 361#041D03F500000000
(1779526294.003712) can0 362#00000000001E0000
(1779526294.003836) can0 369#0000000000000000
(1779526294.004077) can0 320#13848D249384055E
(1779526294.004095) can0 36A#0000000000000000
(1779526294.004195) can0 36B#0065000000000000
(1779526294.004321) can0 376#0000000000000000
(1779526294.004481) can0 3EC#0000000000000000
(1779526294.004577) can0 3EF#0000000000000000
(1779526294.004700) can0 471#0015000004040000
(1779526294.005289) can0 324#0009000700090004
(1779526294.005834) can0 6D0#00000003E8000000
(1779526294.009353) can0 328#0000000000000000
(1779526294.009384) can0 6D3#8300056700000000
(1779526294.011077) can0 6D1#00ED027D7D0A0000
(1779526294.013548) can0 320#13888D2293830567
(1779526294.013883) can0 3E5#0100000000000000
(1779526294.014010) can0 364#0D90000000000000
(1779526294.014136) can0 36C#0000000000000000
(1779526294.014260) can0 36D#0000000000000000
(1779526294.014379) can0 36E#0000000000000000
(1779526294.014522) can0 3EA#0000000000000000
(1779526294.014642) can0 3EB#00000000001E001E
(1779526294.014690) can0 3ED#0000000000000000
(1779526294.014886) can0 472#0000000000000000
(1779526294.015011) can0 473#0000000000000000
(1779526294.016902) can0 324#0007000700090009
(1779526294.018817) can0 328#0000000000000000
(1779526294.021545) can0 6D0#22000000C8000000
(1779526294.022731) can0 320#13888D239385055E
(1779526294.023939) can0 2B3#100112
(1779526294.023969) can0 2B1#09940000500000A4
(1779526294.024018) can0 6D4#2700006700000000
(1779526294.025440) can0 360#0000040400510000
(1779526294.025469) can0 361#041803F500000000
(1779526294.025592) can0 362#00000000001E0000
(1779526294.025712) can0 36F#0000000000000000
(1779526294.025841) can0 370#0000FFFD00000000
(1779526294.025963) can0 3E6#0000000000000000
(1779526294.026098) can0 3EC#0000000000000000
(1779526294.026144) can0 471#0014000104040000
(1779526294.026323) can0 324#0000000800070008
(1779526294.026451) can0 474#0000000000000000
(1779526294.026580) can0 477#FFFF000000000000
(1779526294.027987) can0 6D4#250033CF08270000
(1779526294.028109) can0 328#0000000000000000
(1779526294.028975) can0 6D1#29ED021900000000
(1779526294.032160) can0 6D6#01005F2B2DEA01AB
(1779526294.032196) can0 320#13858D239383055E
(1779526294.034324) can0 6D3#6000000800000000
(1779526294.035378) can0 3E5#0100000000000000
(1779526294.035433) can0 364#0D90000000000000
(1779526294.035625) can0 3E7#0000000400000000
(1779526294.035690) can0 3E8#0000000000000000
(1779526294.035823) can0 3E9#0000000003B60000
(1779526294.035948) can0 3EA#0000000000000000
(1779526294.036053) can0 3EB#00000000001E001E
(1779526294.036179) can0 3ED#0000000000000000
(1779526294.036304) can0 476#0000000000000000
(1779526294.036431) can0 324#0008000500090007
(1779526294.036610) can0 6D0#41000003E8000000
(1779526294.036683) can0 6F4#0000000000000000
(1779526294.036822) can0 6F7#000001C20D3A0000
(1779526294.038086) can0 328#0000000000000000
(1779526294.042480) can0 320#13858D1F93830567
(1779526294.045174) can0 6D0#23000000C8000000
(1779526294.046550) can0 324#0007000700080008
(1779526294.048014) can0 360#0000040400520000
(1779526294.048056) can0 361#041B03F500000000
(1779526294.048076) can0 362#00000000001E0000
(1779526294.048261) can0 363#0000000000000CE4
(1779526294.048480) can0 368#095A000000000000
(1779526294.048489) can0 3E0#0DE30C9300000D7A
(1779526294.048635) can0 3EC#0000000000000000
(1779526294.048772) can0 3EE#0000000000000000
(1779526294.048889) can0 328#0000000000000000
(1779526294.049026) can0 470#095A00000000FCFD
(1779526294.049146) can0 471#0014000104040000
(1779526294.052157) can0 320#13818D239388055E
(1779526294.055772) can0 70C#05
(1779526294.056295) can0 324#0008000400090008
(1779526294.056418) can0 6D4#260033B900000000
(1779526294.057412) can0 6D0#01000003E8000000
(1779526294.058021) can0 3E5#0100000000000000
(1779526294.058129) can0 364#0D90000000000000
(1779526294.058232) can0 369#0000000000000000
(1779526294.058394) can0 36A#0000000000000000
(1779526294.058587) can0 36B#0065000000000000
(1779526294.058613) can0 371#0000000000000000
(1779526294.058773) can0 328#0000000000000000
(1779526294.058923) can0 3E1#0BE5000000000000
(1779526294.059002) can0 3EA#0000000000000000
(1779526294.059111) can0 3EB#00000000001E001E
(1779526294.059233) can0 3ED#0000000000000000
(1779526294.059394) can0 3EF#0000000000000000
(1779526294.060906) can0 6D3#6100000400000000
(1779526294.062335) can0 320#13838D2293850561
(1779526294.066696) can0 324#0009000800090009
(1779526294.067138) can0 37F#04B2000000000000
(1779526294.068199) can0 360#0000040400520000
(1779526294.068295) can0 361#041903F500000000
(1779526294.068314) can0 362#00000000001E0000
(1779526294.068428) can0 36C#0000000000000000
(1779526294.068560) can0 36D#0000000000000000
(1779526294.068684) can0 36E#0000000000000000
(1779526294.068793) can0 372#00820000000003F5
(1779526294.068925) can0 3E2#02EE0000FFFF0000
(1779526294.069048) can0 3EC#0000000000000000
(1779526294.069199) can0 328#0000000000000000
(1779526294.069373) can0 471#0017000104040000
(1779526294.069482) can0 472#0000000000000000
(1779526294.069614) can0 6D0#24000000C8000000
(1779526294.072119) can0 6F5#0100000000000000
(1779526294.073153) can0 320#13858D1E93870568
(1779526294.073185) can0 6D6#02000CDF006B13EA
(1779526294.075018) can0 2B3#100112
(1779526294.075084) can0 2B1#09940000500000A4
(1779526294.075758) can0 324#0009000900090007
(1779526294.078153) can0 328#0000000000000000
(1779526294.079055) can0 3E5#0100000000000000
(1779526294.079116) can0 364#0D85000000000000
(1779526294.079242) can0 36F#0000000000000000
(1779526294.079409) can0 370#0000FFFD00000000
(1779526294.079512) can0 373#0000000000000000
(1779526294.079588) can0 3E3#0000000000000000
(1779526294.079740) can0 3E6#0000000000000000
(1779526294.079842) can0 3EA#0000000000000000
(1779526294.079996) can0 3EB#00000000001E001E
(1779526294.080113) can0 3ED#0000000000000000
(1779526294.080229) can0 474#0000000000000000
(1779526294.080409) can0 6D1#20ED021900000000
(1779526294.080455) can0 6D4#250033FC02CD0000
(1779526294.083710) can0 320#13838D1F93870561
(1779526294.084890) can0 6D3#6200000700000000
(1779526294.086319) can0 324#0007000500080007
(1779526294.088101) can0 6D1#6201000009C4000C
(1779526294.089250) can0 328#0000000000000000
(1779526294.090555) can0 360#0000040300520000
(1779526294.090606) can0 361#041903F500000000
(1779526294.090723) can0 362#00000000001E0000
(1779526294.090846) can0 374#0000000000000000
(1779526294.090970) can0 3E4#0001000000000080
(1779526294.091096) can0 3E7#0000000400000000
(1779526294.091227) can0 3E8#0000000000000000
(1779526294.091332) can0 3E9#0000000003B70000
(1779526294.091479) can0 3EC#0000000000000000
(1779526294.091591) can0 471#0011000104030000
(1779526294.091721) can0 476#0000000000000000
(1779526294.091832) can0 6D0#2503E800C8000000
(1779526294.091948) can0 6F4#0000000000000000
(1779526294.094411) can0 320#13888D2393830561
(1779526294.096543) can0 324#0008000700070008
(1779526294.098563) can0 328#0000000000000000
(1779526294.101610) can0 3E5#0100000000000000
(1779526294.101727) can0 363#0000000000000CE4
(1779526294.101857) can0 364#0D8E000000000000
(1779526294.101982) can0 368#095A000000000000
(1779526294.102107) can0 375#0000000000000000
(1779526294.102232) can0 3EA#0000000000000000
(1779526294.102341) can0 3EB#00000000001E001E
(1779526294.102486) can0 320#13878D2393850561
(1779526294.102616) can0 3ED#0000000000000000
(1779526294.102739) can0 3EE#0000000000000000
(1779526294.102845) can0 470#095A00000000FCFD
(1779526294.102961) can0 6F0#0000000000000000
(1779526294.106631) can0 324#0009000700090008
(1779526294.110808) can0 328#0000000000000000
(1779526294.110896) can0 6D3#6300000700000000
(1779526294.110915) can0 6D4#260033CF00000000
(1779526294.112593) can0 320#13848D1F93870564
(1779526294.113944) can0 360#0000040400510000
(1779526294.114031) can0 361#041B03F500000000
(1779526294.114051) can0 362#00000000001E0000
(1779526294.114155) can0 369#0000000000000000
(1779526294.114278) can0 36A#0000000000000000
(1779526294.114409) can0 36B#0065000000000000
(1779526294.114540) can0 376#0000000000000000
(1779526294.114664) can0 3EC#0000000000000000
(1779526294.114790) can0 3EF#0000000000000000
(1779526294.114921) can0 471#0015000104040000
(1779526294.115018) can0 6D0#2603E800C8000000
(1779526294.115148) can0 6F1#0000000000000000
(1779526294.116224) can0 324#0008000700080009
(1779526294.116399) can0 6D6#03251F1E1F320008
(1779526294.116453) can0 6D0#0203E803E8000000
(1779526294.119305) can0 328#0000000000000000
(1779526294.123425) can0 320#13848D279383055E
(1779526294.125787) can0 324#0009000800080005
(1779526294.126194) can0 2B3#100112
(1779526294.126281) can0 2B1#09940000500000A4
(1779526294.126563) can0 3E5#0100000000000000
(1779526294.126678) can0 364#0D83000000000000
(1779526294.126802) can0 36C#0000000000000000
(1779526294.126933) can0 36D#0000000000000000
(1779526294.127039) can0 36E#0000000000000000
(1779526294.127168) can0 3EA#0000000000000000
(1779526294.127291) can0 3EB#00000000001E001E
(1779526294.127427) can0 3ED#0000000000000000
(1779526294.127571) can0 472#0000000000000000
(1779526294.127723) can0 473#0000000000000000
(1779526294.127798) can0 6F2#0000000000000000
(1779526294.128450) can0 328#0000000000000000
(1779526294.132055) can0 320#13888D20937F0563
(1779526294.132880) can0 6D1#21ED022300000000
(1779526294.134240) can0 6D3#8000138400000000
(1779526294.136643) can0 324#0008000800090007
(1779526294.136810) can0 360#0000040400510000
(1779526294.136912) can0 361#041B03F500000000
(1779526294.137063) can0 362#00000000001E0000
(1779526294.137175) can0 36F#0000000000000000
(1779526294.137305) can0 370#0000FFFD00000000
(1779526294.137446) can0 3E6#0000000000000000
(1779526294.137522) can0 3EC#0000000000000000
(1779526294.137625) can0 471#0010000104040000
(1779526294.137756) can0 474#0000000000000000
(1779526294.137880) can0 477#FFFF000000000000
(1779526294.137986) can0 6D0#27000000C8000000
(1779526294.138117) can0 6F3#0DA50DA500000000
(1779526294.138246) can0 328#0000000000000000
(1779526294.138493) can0 60B#221710009600
(1779526294.139454) can0 6D1#01ED027D7D000000
(1779526294.140056) can0 6D4#2700007600000000
(1779526294.142043) can0 320#13848D2293850563
(1779526294.142261) can0 6D0#40000003E8000000
(1779526294.144275) can0 6D4#250033F408780000
(1779526294.147125) can0 324#0009000500090009
(1779526294.149353) can0 328#0000000000000000
(1779526294.149591) can0 3E5#0100000000000000
(1779526294.149721) can0 364#0D90000000000000
(1779526294.149831) can0 3E7#0000000400000000
(1779526294.149956) can0 3E8#0000000000000000
(1779526294.150072) can0 3E9#0000000003B60000
(1779526294.150202) can0 3EA#0000000000000000
(1779526294.150410) can0 3EB#00000000001E001E
(1779526294.150455) can0 3ED#0000000000000000
(1779526294.150587) can0 475#0000000000000000
(1779526294.150712) can0 476#0000000000000000
(1779526294.150837) can0 6F4#0000000000000000
(1779526294.150961) can0 6F7#000001C20D3A0000
(1779526294.151046) can0 60B#2200180200
(1779526294.152160) can0 320#13858D279387055D
(1779526294.156301) can0 6D1#414B000028000000
(1779526294.157553) can0 324#0007000800070007
(1779526294.157626) can0 6D6#0400336C03800000
(1779526294.159579) can0 328#0000000000000000
(1779526294.159768) can0 6D3#81010D2300000000
(1779526294.159870) can0 360#0000040300510000
(1779526294.159963) can0 361#041903F500000000
(1779526294.160098) can0 362#00000000001E0000
(1779526294.160223) can0 363#0000000000000CE4
(1779526294.160401) can0 368#095A000000000000
(1779526294.160456) can0 3EC#0000000000000000
(1779526294.160643) can0 3EE#0000000000000000
(1779526294.160723) can0 470#095A00000000FCFD
(1779526294.160842) can0 471#0016000004030000
(1779526294.160948) can0 6D0#28000000C8000000
(1779526294.161073) can0 6F6#0000000000000000
(1779526294.162737) can0 320#13888D2393830564
(1779526294.165336) can0 324#0007000400090007
(1779526294.165710) can0 60B#220018030000
(1779526294.168277) can0 328#0000000000000000
(1779526294.170105) can0 6D0#03000003E8000000
(1779526294.170649) can0 3E5#0100000000000000
(1779526294.170769) can0 364#0D83000000000000
(1779526294.170901) can0 369#0000000000000000
(1779526294.171020) can0 36A#0000000000000000
(1779526294.171138) can0 36B#0065000000000000
(1779526294.171265) can0 371#0000000000000000
(1779526294.171462) can0 3EA#0000000000000000
(1779526294.171487) can0 3EB#00000000001E001E
(1779526294.171644) can0 3ED#0000000000000000
(1779526294.171771) can0 3EF#0000000000000000
(1779526294.171897) can0 469#0C7A000000000000
(1779526294.172668) can0 320#13848D2093870565
(1779526294.174904) can0 37F#04B2000000000000
(1779526294.175986) can0 6D4#260033B900000000
(1779526294.176054) can0 324#0009000800030007
(1779526294.177560) can0 2B3#100112
(1779526294.177606) can0 2B1#09940000500000A3
(1779526294.177982) can0 60B#220018050000
(1779526294.179253) can0 328#0000000000000000
(1779526294.182885) can0 320#13858D2693840559
(1779526294.183143) can0 360#0000040300510000
(1779526294.183217) can0 361#041D03F500000000
(1779526294.183412) can0 362#00000000001E0000
(1779526294.183481) can0 36C#0000000000000000
(1779526294.183655) can0 36D#0000000000000000
(1779526294.183746) can0 36E#0000000000000000
(1779526294.183851) can0 372#00820000000003F5
(1779526294.184001) can0 3EC#0000000000000000
(1779526294.184078) can0 471#0016000004030000
(1779526294.184264) can0 472#0000000000000000
(1779526294.184333) can0 6D0#29000000C8000000
(1779526294.184511) can0 6F8#00000000000003E8
(1779526294.186244) can0 6D3#8201138100000000
(1779526294.186450) can0 324#0008000700080007
(1779526294.186963) can0 6D1#22ED022300000000
(1779526294.189007) can0 328#0000000000000000
(1779526294.192417) can0 320#13858D1F93830565
(1779526294.193643) can0 3E5#0100000000000000
(1779526294.193729) can0 364#0D90000000000000
(1779526294.193854) can0 36F#0000000000000000
(1779526294.193984) can0 370#0000FFFD00000000
(1779526294.194120) can0 373#0000000000000000
(1779526294.194235) can0 3E6#0000000000000000
(1779526294.194407) can0 3EA#0000000000000000
(1779526294.194503) can0 3EB#00000000001E001E
(1779526294.194633) can0 3ED#0000000000000000
(1779526294.194753) can0 474#0000000000000000
(1779526294.194859) can0 6D1#810207D003E80000
(1779526294.194987) can0 6D4#250033C803D00000
(1779526294.196514) can0 324#00080005000B0007
(1779526294.198496) can0 328#0000000000000000
(1779526294.199300) can0 6D6#05001980002636B1
(1779526294.202274) can0 320#13818D2293870568
(1779526294.204051) can0 360#0000040300510000
(1779526294.204177) can0 361#041403F500000000
(1779526294.204257) can0 362#00000000001E0000
(1779526294.204399) can0 374#0000000000000000
(1779526294.204540) can0 3E7#0000000400000000
(1779526294.204657) can0 3E8#0000000000000000
(1779526294.204798) can0 3E9#0000000003B70000
(1779526294.204945) can0 3EC#0000000000000000
(1779526294.205008) can0 471#0014000104030000
(1779526294.205133) can0 476#0000000000000000
(1779526294.205258) can0 6D0#20000000C8000000
(1779526294.205397) can0 6F4#0000000000000000
(1779526294.205652) can0 70C#05
(1779526294.206944) can0 324#0007000800040008
(1779526294.208780) can0 328#0000000000000000
(1779526294.209516) can0 6D3#8300056400000000
(1779526294.210197) can0 430#750000
(1779526294.212140) can0 320#13838D2493840568
(1779526294.215267) can0 3E5#0100000000000000
(1779526294.215396) can0 363#0000000000000CE4
(1779526294.215575) can0 364#0D8E000000000000
(1779526294.215689) can0 368#095A000000000000
(1779526294.215811) can0 375#0000000000000000
(1779526294.215936) can0 3EA#0000000000000000
(1779526294.216057) can0 3EB#00000000001E001E
(1779526294.216170) can0 3ED#0000000000000000
(1779526294.216255) can0 3EE#0000000000000000
(1779526294.216398) can0 470#095A00000000FCFD
(1779526294.216505) can0 6D1#6301000009C4000C
(1779526294.216703) can0 324#0009000500050005
(1779526294.219863) can0 328#0000000000000000
(1779526294.221905) can0 6D0#00000003E8000000
(1779526294.223251) can0 320#13888D1F9385055D
(1779526294.225770) can0 6D4#260033C000000000
(1779526294.225895) can0 324#0007000800070008
(1779526294.227468) can0 360#0000040300510000
(1779526294.227532) can0 361#041903F500000000
(1779526294.227698) can0 362#00000000001E0000
(1779526294.227840) can0 369#0000000000000000
(1779526294.227894) can0 36A#0000000000000000
(1779526294.228082) can0 36B#0065000000000000
(1779526294.228132) can0 376#0000000000000000
(1779526294.228279) can0 328#0000000000000000
(1779526294.228447) can0 3EC#0000000000000000
(1779526294.228520) can0 3EF#0000000000000000
(1779526294.228661) can0 2B3#100112
(1779526294.228721) can0 2B1#09940000500000A4
(1779526294.228813) can0 471#0015000004030000
(1779526294.228954) can0 6D0#2103E800C8000000
(1779526294.233549) can0 320#13858D2393840560
(1779526294.234860) can0 6D3#6000000700000000
(1779526294.236353) can0 324#0008000700070008
(1779526294.237802) can0 3E5#0100000000000000
(1779526294.237867) can0 364#0D85000000000000
(1779526294.237998) can0 36C#0000000000000000
(1779526294.238123) can0 36D#0000000000000000
(1779526294.238238) can0 36E#0000000000000000
(1779526294.238400) can0 3EA#0000000000000000
(1779526294.238499) can0 3EB#00000000001E001E
(1779526294.238611) can0 3ED#0000000000000000
(1779526294.238747) can0 472#0000000000000000
(1779526294.238863) can0 473#0000000000000000
(1779526294.238997) can0 328#0000000000000000
(1779526294.239102) can0 6D1#23ED021900000000
(1779526294.242066) can0 6D5#1001090000000000
(1779526294.242132) can0 320#13838D2393810563
(1779526294.245580) can0 6D0#41000003E8000000
(1779526294.246273) can0 324#0007000700070005
(1779526294.248166) can0 360#0000040300510000
(1779526294.248287) can0 361#041903F500000000
(1779526294.248396) can0 362#00000000001E0000
(1779526294.248529) can0 36F#0000000000000000
(1779526294.248654) can0 370#0000FFFD00000000
(1779526294.248779) can0 3E6#0000000000000000
(1779526294.248909) can0 3EC#0000000000000000
(1779526294.249036) can0 471#0014000104030000
(1779526294.249145) can0 474#0000000000000000
(1779526294.249272) can0 477#FFFF000000000000
(1779526294.249400) can0 6D0#22000000C8000000
(1779526294.249744) can0 328#0000000000000000
(1779526294.253021) can0 6D4#250033E508FE0000
(1779526294.253129) can0 320#13878D1E93840564
(1779526294.256903) can0 324#0008000700070008
(1779526294.258145) can0 3E5#0100000000000000
(1779526294.258257) can0 364#0D85000000000000
(1779526294.258399) can0 3E7#0000000400000000
(1779526294.258499) can0 3E8#0000000000000000
(1779526294.258631) can0 3E9#0000000003B70000
(1779526294.258755) can0 3EA#0000000000000000
(1779526294.258897) can0 328#0000000000000000
(1779526294.259013) can0 3EB#00000000001E001E
(1779526294.259130) can0 3ED#0000000000000000
(1779526294.259268) can0 476#0000000000000000
(1779526294.259397) can0 6F4#0000000000000000
(1779526294.259502) can0 6F7#000001C20D3A0000
(1779526294.261542) can0 6D3#6100000700000000
(1779526294.263320) can0 320#13858D209388055E
(1779526294.266087) can0 6D1#02ED026E64000000
(1779526294.267472) can0 324#0009000900080005
(1779526294.268346) can0 328#0000000000000000
(1779526294.269247) can0 360#0000040300510000
(1779526294.269315) can0 361#041903F500000000
(1779526294.269432) can0 362#00000000001E0000
(1779526294.269541) can0 363#0000000000000CE4
(1779526294.269663) can0 368#095A000000000000
(1779526294.269786) can0 3E0#0DE30C9300000D7A
(1779526294.269911) can0 3EC#0000000000000000
(1779526294.270047) can0 3EE#0000000000000000
(1779526294.270152) can0 470#095A00000000FCFD
(1779526294.270278) can0 471#001A000004030000
(1779526294.270399) can0 6D0#23000000C8000000
(1779526294.272554) can0 320#13878D2493840561
(1779526294.273085) can0 6D0#01000003E8000000
(1779526294.276693) can0 324#0008000700070009
(1779526294.278369) can0 328#0000000000000000
(1779526294.279420) can0 3E5#0100000000000000
(1779526294.279459) can0 364#0D83000000000000
(1779526294.279598) can0 369#0000000000000000
(1779526294.279728) can0 36A#0000000000000000
(1779526294.279834) can0 36B#0065000000000000
(1779526294.279955) can0 371#0000000000000000
(1779526294.280087) can0 3E1#0BE4000000000000
(1779526294.280279) can0 3EA#0000000000000000
(1779526294.280471) can0 3EB#00000000001E001E
(1779526294.280485) can0 3ED#0000000000000000
(1779526294.280649) can0 3EF#0000000000000000
(1779526294.282856) can0 320#13888D2493870561
(1779526294.282987) can0 6D4#260033A300000000
(1779526294.283007) can0 2B3#100112
(1779526294.283144) can0 2B1#09940000500000A4
(1779526294.284791) can0 6D6#0001342F34543344
(1779526294.284824) can0 6D3#6200000700000000
(1779526294.285086) can0 37F#04B2000000000000
(1779526294.285858) can0 324#0007000700090007
(1779526294.288673) can0 328#0000000000000000
(1779526294.292763) can0 320#13848D229388055E
(1779526294.293185) can0 360#0000040300510000
(1779526294.293294) can0 361#041803F500000000
(1779526294.293418) can0 362#00000000001E0000
(1779526294.293538) can0 36C#0000000000000000
(1779526294.293674) can0 36D#0000000000000000
(1779526294.293794) can0 36E#0000000000000000
(1779526294.293899) can0 372#00820000000003F5
(1779526294.294035) can0 3E2#02EE0000FFFF0000
(1779526294.294150) can0 3EC#0000000000000000
(1779526294.294283) can0 471#001A000004030000
(1779526294.294400) can0 472#0000000000000000
(1779526294.294588) can0 6D0#24000000C8000000
(1779526294.295120) can0 324#0009000900090005
(1779526294.298797) can0 328#0000000000000000
(1779526294.300443) can0 6D1#24ED021900000000
(1779526294.301693) can0 6D4#250033E504A00000
(1779526294.303158) can0 320#13848D1E93830574
(1779526294.303653) can0 3E5#0100000000000000
(1779526294.303767) can0 364#0D83000000000000
(1779526294.303878) can0 36F#0000000000000000
(1779526294.304007) can0 370#0000FFFD00000000
(1779526294.304135) can0 373#0000000000000000
(1779526294.304240) can0 3E3#0000000000000000
(1779526294.304407) can0 3E6#0000000000000000
(1779526294.304502) can0 3EA#0000000000000000
(1779526294.304629) can0 3EB#00000000001E001E
(1779526294.304758) can0 3ED#0000000000000000
(1779526294.304884) can0 474#0000000000000000
(1779526294.305454) can0 324#0007000700080008
(1779526294.308852) can0 328#0000000000000000
(1779526294.308935) can0 6D3#6300000700000000
(1779526294.313604) can0 320#13888D2293870564
(1779526294.313904) can0 360#0000040400510000
(1779526294.313961) can0 361#041903F500000000
(1779526294.314087) can0 362#00000000001E0000
(1779526294.314222) can0 374#0000000000000000
(1779526294.314399) can0 3E4#0001000000000080
(1779526294.314494) can0 3E7#0000000400000000
(1779526294.314604) can0 3E8#0000000000000000
(1779526294.314728) can0 3E9#0000000003B60000
(1779526294.314854) can0 3EC#0000000000000000
(1779526294.314958) can0 471#0015000004040000
(1779526294.315084) can0 476#0000000000000000
(1779526294.315215) can0 6D0#2503E800C8000000
(1779526294.315395) can0 6F4#0000000000000000
(1779526294.316179) can0 324#0007000700090008
(1779526294.318606) can0 328#0000000000000000
(1779526294.321421) can0 6D1#820207D003E80000
(1779526294.322552) can0 320#13858D2493850560
(1779526294.323986) can0 100#000000EF6F000000
(1779526294.324059) can0 100#01FFFFEF00000000
(1779526294.324088) can0 100#0400000000000000
(1779526294.324214) can0 100#0200000000000000
(1779526294.324410) can0 100#0300000000000000
(1779526294.325050) can0 6D0#0203E803E8000000
(1779526294.325562) can0 3E5#0100000000000000
(1779526294.325650) can0 363#0000000000000CE4
(1779526294.325774) can0 364#0D90000000000000
(1779526294.325879) can0 368#095A000000000000
(1779526294.326000) can0 375#0000000000000000
(1779526294.326130) can0 3EA#0000000000000000
(1779526294.326262) can0 3EB#00000000001E001E
(1779526294.326411) can0 3ED#0000000000000000
(1779526294.326507) can0 3EE#0000000000000000
(1779526294.326641) can0 470#095A00000000FCFD
(1779526294.326762) can0 6F0#0000000000000000
(1779526294.327073) can0 324#0008000500080005
(1779526294.327163) can0 6D6#01005F292DE901A9
(1779526294.329299) can0 328#0000000000000000
(1779526294.330971) can0 2B3#100112
(1779526294.331080) can0 2B1#09940000500000A4
(1779526294.332124) can0 320#13848D2693800563
(1779526294.334862) can0 6D4#260033B200000000
(1779526294.334934) can0 6D3#8000138800000000
(1779526294.335605) can0 324#0008000500070007
(1779526294.335976) can0 6D0#2603E800C8000000
(1779526294.336194) can0 360#0000040400510000
(1779526294.336317) can0 361#041F03F500000000
(1779526294.336463) can0 362#00000000001E0000
(1779526294.336522) can0 369#0000000000000000
(1779526294.336690) can0 36A#0000000000000000
(1779526294.336841) can0 36B#0065000000000000
(1779526294.336927) can0 376#0000000000000000
(1779526294.337019) can0 3EC#0000000000000000
(1779526294.337132) can0 3EF#0000000000000000
(1779526294.337249) can0 471#0015000004040000
(1779526294.337403) can0 6F1#0000000000000000
(1779526294.339451) can0 328#0000000000000000
(1779526294.342269) can0 6D1#6001000009C4000C
(1779526294.343227) can0 320#13888D1B93870563
(1779526294.345468) can0 324#000700000009000C
(1779526294.348715) can0 3E5#0100000000000000
(1779526294.348826) can0 364#0D83000000000000
(1779526294.348918) can0 36C#0000000000000000
(1779526294.349049) can0 36D#0000000000000000
(1779526294.349175) can0 36E#0000000000000000
(1779526294.349355) can0 3EA#0000000000000000
(1779526294.349416) can0 3EB#00000000001E001E
(1779526294.349599) can0 3ED#0000000000000000
(1779526294.349721) can0 472#0000000000000000
(1779526294.349905) can0 473#0000000000000000
(1779526294.349932) can0 328#0000000000000000
(1779526294.350061) can0 6D0#40000003E8000000
(1779526294.350180) can0 6F2#0000000000000000
(1779526294.351970) can0 6D1#254D022300000000
(1779526294.353270) can0 320#13858D2093870561
(1779526294.355545) can0 324#0009000800080005
(1779526294.355680) can0 70C#05
(1779526294.358536) can0 360#0000040400510000
(1779526294.358643) can0 361#041803F500000000
(1779526294.358773) can0 362#00000000001E0000
(1779526294.358901) can0 36F#0000000000000000
(1779526294.358944) can0 370#0000FFFD00000000
(1779526294.359070) can0 3E6#0000000000000000
(1779526294.359195) can0 3EC#0000000000000000
(1779526294.359411) can0 471#0015000004040000
(1779526294.359454) can0 474#0000000000000000
(1779526294.359584) can0 477#FFFF000000000000
(1779526294.359693) can0 6D0#27000000C8000000
(1779526294.359818) can0 6F3#0DA50DA500000000
(1779526294.359949) can0 328#0000000000000000
(1779526294.361417) can0 6D3#81010D2200000000
(1779526294.363142) can0 320#13848D269380055D
(1779526294.365870) can0 6D4#2700006700000000
(1779526294.365985) can0 324#0009000500080008
(1779526294.368720) can0 6D6#02000CDF006B13EA
(1779526294.368836) can0 328#0000000000000000
(1779526294.369794) can0 3E5#0100000000000000
(1779526294.369903) can0 364#0D85000000000000
(1779526294.370025) can0 3E7#0000000400000000
(1779526294.370151) can0 3E8#0000000000000000
(1779526294.370282) can0 3E9#0000000003B70000
(1779526294.370396) can0 3EA#0000000000000000
(1779526294.370528) can0 3EB#00000000001E001E
(1779526294.370653) can0 3ED#0000000000000000
(1779526294.370776) can0 475#0000000000000000
(1779526294.370909) can0 476#0000000000000000
(1779526294.371034) can0 6F4#0000000000000000
(1779526294.371143) can0 6F7#000001C20D3A0000
(1779526294.372845) can0 320#13878D1F93880561
(1779526294.376563) can0 324#0005000500090007
(1779526294.378854) can0 328#0000000000000000
(1779526294.378975) can0 6D0#28000000C8000000
(1779526294.381481) can0 2B3#100112
(1779526294.381522) can0 2B1#09940000500000A4
(1779526294.383027) can0 360#0000040300510000
(1779526294.383071) can0 361#041903F500000000
(1779526294.383233) can0 362#00000000001E0000
(1779526294.383241) can0 363#0000000000000CE4
(1779526294.383412) can0 368#095A000000000000
(1779526294.383458) can0 3EC#0000000000000000
(1779526294.383592) can0 3EE#0000000000000000
(1779526294.383738) can0 470#095A00000000FCFD
(1779526294.383847) can0 471#0015000004030000
(1779526294.383980) can0 6D0#03000003E8000000
(1779526294.384078) can0 6F6#0000000000000000
(1779526294.384311) can0 320#13888D2693840561
(1779526294.384432) can0 6D3#8201138500000000
(1779526294.385457) can0 324#0009000800070005
(1779526294.389569) can0 328#0000000000000000
(1779526294.392402) can0 320#13878D2093830564
(1779526294.393629) can0 37F#04B2000000000000
(1779526294.394203) can0 6D4#2800000700000000
(1779526294.396326) can0 324#0008000500070007
(1779526294.397828) can0 3E5#0100000000000000
(1779526294.397946) can0 364#0D83000000000000
(1779526294.398073) can0 369#0000000000000000
(1779526294.398200) can0 36A#0000000000000000
(1779526294.398326) can0 36B#0065000000000000
(1779526294.398460) can0 371#0000000000000000
(1779526294.398529) can0 3EA#0000000000000000
(1779526294.398628) can0 3EB#00000000001E001E
(1779526294.398758) can0 3ED#0000000000000000
(1779526294.398889) can0 3EF#0000000000000000
(1779526294.399014) can0 328#0000000000000000
(1779526294.399149) can0 469#0C7A000000000000
(1779526294.399274) can0 6D1#03EB027D7D000000
(1779526294.402087) can0 6D0#29000000C8000000
(1779526294.402773) can0 320#13888D2393880563
(1779526294.404484) can0 6D1#26ED021900000000
(1779526294.407351) can0 324#0007000700070007
(1779526294.409512) can0 328#0000000000000000
(1779526294.409563) can0 6D3#8300056400000000
(1779526294.409699) can0 6D6#03261F1E1F320015
(1779526294.412036) can0 360#0000040300510000
(1779526294.412111) can0 361#041603F500000000
(1779526294.412137) can0 362#00000000001E0000
(1779526294.412251) can0 36C#0000000000000000
(1779526294.412406) can0 36D#0000000000000000
(1779526294.412519) can0 36E#0000000000000000
(1779526294.412643) can0 372#00820000000003F5
(1779526294.412767) can0 3EC#0000000000000000
(1779526294.412889) can0 471#000E000104030000
(1779526294.413037) can0 472#0000000000000000
(1779526294.413172) can0 6D1#404B000028000000
(1779526294.413260) can0 6F8#00000000000003E8
(1779526294.413410) can0 320#13848D249384055D
(1779526294.416422) can0 324#0008000700080007
(1779526294.419024) can0 328#0000000000000000
(1779526294.422187) can0 320#13848D2093840561
(1779526294.425276) can0 3E5#0100000000000000
(1779526294.425415) can0 364#0D83000000000000
(1779526294.425479) can0 36F#0000000000000000
(1779526294.425599) can0 370#0000FFFD00000000
(1779526294.425724) can0 373#0000000000000000
(1779526294.425834) can0 3E6#0000000000000000
(1779526294.425960) can0 3EA#0000000000000000
(1779526294.426085) can0 3EB#00000000001E001E
(1779526294.426221) can0 3ED#0000000000000000
(1779526294.426413) can0 474#0000000000000000
(1779526294.426492) can0 6D0#20000000C8000000
(1779526294.426650) can0 324#0009000800080005
(1779526294.428548) can0 6D4#2900000000000000
(1779526294.428669) can0 328#0000000000000000
(1779526294.432550) can0 320#13838D1F93840565
(1779526294.433562) can0 2B3#100112
(1779526294.433614) can0 2B1#09940000500000A4
(1779526294.435082) can0 6D0#00000003E8000000
(1779526294.436505) can0 6D3#6000000900000000
(1779526294.436524) can0 324#0009000700070007
(1779526294.438195) can0 360#0000040300510000
(1779526294.438290) can0 361#041B03F500000000
(1779526294.438310) can0 362#00000000001E0000
(1779526294.438414) can0 374#0000000000000000
(1779526294.438543) can0 3E7#0000000400000000
(1779526294.438674) can0 3E8#0000000000000000
(1779526294.438800) can0 3E9#0000000003B70000
(1779526294.438904) can0 3EC#0000000000000000
(1779526294.439029) can0 471#0018000004030000
(1779526294.439234) can0 476#0000000000000000
(1779526294.439279) can0 328#0000000000000000
(1779526294.439415) can0 6F4#0000000000000000
(1779526294.442864) can0 320#13848D1F937F0565
(1779526294.442888) can0 6D4#250033E508BB0000
(1779526294.446472) can0 324#0008000500070007
(1779526294.448271) can0 328#0000000000000000
(1779526294.452798) can0 6D6#0400336E03810000
(1779526294.452881) can0 320#13848D2693880561
(1779526294.453670) can0 3E5#0100000000000000
(1779526294.453788) can0 363#0000000000000CE4
(1779526294.453911) can0 364#0D83000000000000
(1779526294.454037) can0 368#095A000000000000
(1779526294.454143) can0 375#0000000000000000
(1779526294.454268) can0 3EA#0000000000000000
(1779526294.454412) can0 3EB#00000000001E001E
(1779526294.454532) can0 3ED#0000000000000000
(1779526294.454655) can0 3EE#0000000000000000
(1779526294.454780) can0 470#095A00000000FCFD
(1779526294.454903) can0 6D0#2103E800C8000000
(1779526294.456458) can0 324#0009000800090005
(1779526294.456691) can0 6D1#27ED022800000000
(1779526294.459014) can0 6D0#41000003E8000000
(1779526294.460280) can0 328#0000000000000000
(1779526294.460396) can0 6D3#6100000700000000
(1779526294.462768) can0 320#13888D2093840560
(1779526294.462929) can0 360#0000040300510000
(1779526294.463053) can0 361#041803F500000000
(1779526294.463182) can0 362#00000000001E0000
(1779526294.463298) can0 369#0000000000000000
(1779526294.463431) can0 36A#0000000000000000
(1779526294.463572) can0 36B#0065000000000000
(1779526294.463662) can0 376#0000000000000000
(1779526294.463788) can0 3EC#0000000000000000
(1779526294.463911) can0 3EF#0000000000000000
(1779526294.464048) can0 471#0015000104030000
(1779526294.464162) can0 6D1#83000FA00BB80000
(1779526294.466025) can0 324#0009000800080009
(1779526294.469007) can0 328#0000000000000000
(1779526294.469320) can0 6D1#6101000009C4000C
(1779526294.474679) can0 320#13878D1F93830565
(1779526294.474724) can0 6D4#260033C000000000
(1779526294.475815) can0 324#0007000700070007
(1779526294.476595) can0 3E5#0100000000000000
(1779526294.476625) can0 364#0D83000000000000
(1779526294.476643) can0 36C#0000000000000000
(1779526294.476775) can0 36D#0000000000000000
(1779526294.476911) can0 36E#0000000000000000
(1779526294.477043) can0 3EA#0000000000000000
(1779526294.477113) can0 3EB#00000000001E001E
(1779526294.477279) can0 3ED#0000000000000000
(1779526294.477488) can0 472#0000000000000000
(1779526294.477502) can0 473#0000000000000000
(1779526294.477649) can0 6D0#22000000C8000000
(1779526294.479278) can0 328#0000000000000000
(1779526294.482096) can0 320#13878D2293870560
(1779526294.484717) can0 2B3#100112
(1779526294.484757) can0 2B1#09940000500000A3
(1779526294.484914) can0 6D3#6200000700000000
(1779526294.484965) can0 324#0009000700090005
(1779526294.487604) can0 360#0000040400510000
(1779526294.487733) can0 361#041803F500000000
(1779526294.487858) can0 362#00000000001E0000
(1779526294.487980) can0 36F#0000000000000000
(1779526294.488129) can0 370#0000FFFD00000000
(1779526294.488174) can0 3E6#0000000000000000
(1779526294.488292) can0 3EC#0000000000000000
(1779526294.488404) can0 471#001A000004040000
(1779526294.488543) can0 474#0000000000000000
(1779526294.488659) can0 328#0000000000000000
(1779526294.488790) can0 477#FFFF000000000000
(1779526294.491000) can0 6D0#01000003E8000000
(1779526294.492637) can0 320#13838D2093850560
(1779526294.494258) can0 6D6#05001980002636B1
(1779526294.496423) can0 324#0009000900070007
(1779526294.496473) can0 6D4#250033DE03350000
(1779526294.498205) can0 328#0000000000000000
(1779526294.498519) can0 37F#04B2000000000000
(1779526294.500731) can0 3E5#0100000000000000
(1779526294.500868) can0 364#0D85000000000000
(1779526294.501000) can0 3E7#0000000400000000
(1779526294.501110) can0 3E8#0000000000000000
(1779526294.501233) can0 3E9#0000000003B70000
(1779526294.501362) can0 3EA#0000000000000000
(1779526294.501499) can0 3EB#00000000001E001E
(1779526294.501612) can0 3ED#0000000000000000
(1779526294.501751) can0 476#0000000000000000
(1779526294.501871) can0 6D0#23000000C8000000
(1779526294.501984) can0 6F4#0000000000000000
(1779526294.502109) can0 6F7#000001C20D3A0000
(1779526294.502985) can0 320#13858D2293810567
(1779526294.505125) can0 324#0008000700070008
(1779526294.505660) can0 70C#05
(1779526294.507632) can0 6D1#28ED021900000000
(1779526294.508871) can0 328#0000000000000000
(1779526294.509969) can0 6D3#6300000900000000
(1779526294.511301) can0 360#0000040300510000
(1779526294.511328) can0 361#041803F500000000
(1779526294.511455) can0 362#00000000001E0000
(1779526294.511560) can0 363#0000000000000CE4
(1779526294.511685) can0 368#095A000000000000
(1779526294.511814) can0 3E0#0DE30C9300000D7A
(1779526294.511919) can0 3EC#0000000000000000
(1779526294.512043) can0 3EE#0000000000000000
(1779526294.512166) can0 470#095A00000000FCFD
(1779526294.512293) can0 471#0015000004030000
(1779526294.512866) can0 320#13888D1E93850562
(1779526294.515275) can0 324#0008000900080005
(1779526294.519523) can0 328#0000000000000000
(1779526294.521801) can0 3E5#0100000000000000
(1779526294.521922) can0 364#0D83000000000000
(1779526294.522039) can0 369#0000000000000000
(1779526294.522163) can0 36A#0000000000000000
(1779526294.522285) can0 36B#0065000000000000
(1779526294.522395) can0 371#0000000000000000
(1779526294.522578) can0 3E1#0BE4000000000000
(1779526294.522700) can0 3EA#0000000000000000
(1779526294.522825) can0 320#13818D2793850561
(1779526294.522920) can0 3EB#00000000001E001E
(1779526294.523038) can0 3ED#0000000000000000
(1779526294.523199) can0 3EF#0000000000000000
(1779526294.523288) can0 6D0#24000000C8000000
(1779526294.524545) can0 6D1#00ED027D7D0A0000
(1779526294.525209) can0 324#0005000500070009
(1779526294.527271) can0 6D4#2600339B00000000
(1779526294.529549) can0 328#0000000000000000
(1779526294.532447) can0 360#0000040400510000
(1779526294.532494) can0 361#041903F500000000
(1779526294.532564) can0 362#00000000001E0000
(1779526294.532709) can0 36C#0000000000000000
(1779526294.532834) can0 36D#0000000000000000
(1779526294.532977) can0 36E#0000000000000000
(1779526294.533100) can0 372#00820000000003F5
(1779526294.533212) can0 3E2#02EE0000FFFF0000
(1779526294.533334) can0 3EC#0000000000000000
(1779526294.533463) can0 471#0015000004040000
(1779526294.533605) can0 472#0000000000000000
(1779526294.533969) can0 320#13888D2493810565
(1779526294.534910) can0 6D3#8000138500000000
(1779526294.535830) can0 2B3#100112
(1779526294.535943) can0 2B1#09940000500000A4
(1779526294.536159) can0 324#000B000700090004
(1779526294.536283) can0 6D5#1001090000000000
(1779526294.538741) can0 328#0000000000000000
(1779526294.543177) can0 3E5#0100000000000000
(1779526294.543238) can0 364#0D90000000000000
(1779526294.543412) can0 36F#0000000000000000
(1779526294.543511) can0 370#0000FFFD00000000
(1779526294.543609) can0 373#0000000000000000
(1779526294.543732) can0 3E3#0000000000000000
(1779526294.543857) can0 3E6#0000000000000000
(1779526294.543981) can0 3EA#0000000000000000
(1779526294.544108) can0 3EB#00000000001E001E
(1779526294.544233) can0 3ED#0000000000000000
(1779526294.544459) can0 474#0000000000000000
(1779526294.544508) can0 320#13878D1F93800569
(1779526294.544875) can0 6D0#2503E800C8000000
(1779526294.546102) can0 6D0#0203E803E8000000
(1779526294.546740) can0 324#0005000400090009
(1779526294.548711) can0 328#0000000000000000
(1779526294.553959) can0 320#13838D2293870560
(1779526294.555476) can0 324#0007000700070008
(1779526294.557156) can0 6D4#250033E508110000
(1779526294.558031) can0 60D#221710009600
(1779526294.558881) can0 328#0000000000000000
(1779526294.559503) can0 360#0000040300510000
(1779526294.559570) can0 361#041B03F500000000
(1779526294.559725) can0 362#00000000001E0000
(1779526294.559860) can0 374#0000000000000000
(1779526294.559988) can0 3E4#0001000000000080
(1779526294.560061) can0 3E7#0000000400000000
(1779526294.560225) can0 3E8#0000000000000000
